!Murata Part Number: LQW18AN6N2C00
!These Parameters are Measured in Series Mode Connection
!       o--[Z]--o
!Port1              Port2
!       o-------o
!
!Freq. Start=50[MHz] Stop=20[GHz], 401[Steps]
# Hz S RI R 50
!Freq.(Hz) S11(Real) S11(Imag) S21(Real) S21(Imag) S12(Real) S12(Imag) S22(Real) S22(Imag)
5.0E7 0.001544797871693833 0.018783526499567094 0.9984552021283064 -0.018783526499567094 0.9984552021283064 -0.018783526499567094 0.001544797871693833 0.018783526499567094
5.0754570186123446E7 0.0015618665955326567 0.019061317623239215 0.9984381334044675 -0.01906131762323922 0.9984381334044675 -0.01906131762323922 0.0015618665955326567 0.019061317623239215
5.152052789556263E7 0.0015793294919585353 0.019343197269822913 0.9984206705080414 -0.019343197269822913 0.9984206705080414 -0.019343197269822913 0.0015793294919585353 0.019343197269822913
5.229804498202928E7 0.00159719500034556 0.019629224934920232 0.9984028049996546 -0.019629224934920232 0.9984028049996546 -0.019629224934920232 0.00159719500034556 0.019629224934920232
5.308729589274893E7 0.0016154717455810978 0.019919461056728833 0.9983845282544189 -0.019919461056728836 0.9983845282544189 -0.019919461056728836 0.0016154717455810978 0.019919461056728833
5.388845770760058E7 0.0016341685470810364 0.02021396703403164 0.998365831452919 -0.02021396703403164 0.998365831452919 -0.02021396703403164 0.0016341685470810364 0.02021396703403164
5.470171017884717E7 0.0016532944283431583 0.020512805244394097 0.9983467055716568 -0.020512805244394094 0.9983467055716568 -0.020512805244394094 0.0016532944283431583 0.020512805244394097
5.5527235771465644E7 0.0016728586270540406 0.020816039062553016 0.9983271413729459 -0.020816039062553016 0.9983271413729459 -0.020816039062553016 0.0016728586270540406 0.020816039062553016
5.6365219704085544E7 0.001692870605764001 0.02112373287898009 0.998307129394236 -0.02112373287898009 0.998307129394236 -0.02112373287898009 0.001692870605764001 0.02112373287898009
5.721584999054556E7 0.0017133400631436967 0.02143595211860214 0.9982866599368565 -0.02143595211860214 0.9982866599368565 -0.02143595211860214 0.0017133400631436967 0.02143595211860214
5.807931748207712E7 0.0017342769458349127 0.02175276325965961 0.998265723054165 -0.02175276325965961 0.998265723054165 -0.02175276325965961 0.0017342769458349127 0.02175276325965961
5.8955815910124585E7 0.00175569146090706 0.022074233852684075 0.9982443085390931 -0.02207423385268407 0.9982443085390931 -0.02207423385268407 0.00175569146090706 0.022074233852684075
5.984554192981184E7 0.0017775940889296906 0.02240043253957492 0.9982224059110703 -0.022400432539574924 0.9982224059110703 -0.022400432539574924 0.0017775940889296906 0.02240043253957492
6.074869516406457E7 0.0017999955976701928 0.022731429072754997 0.9982000044023299 -0.022731429072754997 0.9982000044023299 -0.022731429072754997 0.0017999955976701928 0.022731429072754997
6.166547824839868E7 0.0018229070564245288 0.023067294334384415 0.9981770929435755 -0.023067294334384415 0.9981770929435755 -0.023067294334384415 0.0018229070564245288 0.023067294334384415
6.2596096876384385E7 0.001846339850987673 0.0234081003556119 0.9981536601490122 -0.0234081003556119 0.9981536601490122 -0.0234081003556119 0.001846339850987673 0.0234081003556119
6.354075984579668E7 0.0018703056992690505 0.02375392033584258 0.9981296943007308 -0.02375392033584258 0.9981296943007308 -0.02375392033584258 0.0018703056992690505 0.02375392033584258
6.449967910546205E7 0.0018948166675569918 0.02410482866200103 0.9981051833324431 -0.024104828662001032 0.9981051833324431 -0.024104828662001032 0.0018948166675569918 0.02410482866200103
6.547306980281226E7 0.0019198851874349396 0.024460900927769126 0.9980801148125652 -0.02446090092776913 0.9980801148125652 -0.02446090092776913 0.0019198851874349396 0.024460900927769126
6.646115033215589E7 0.0019455240733508132 0.024822213952777786 0.9980544759266492 -0.024822213952777783 0.9980544759266492 -0.024822213952777783 0.0019455240733508132 0.024822213952777786
6.746414238367817E7 0.001971746540839711 0.0251888458017325 0.9980282534591602 -0.025188845801732498 0.9980282534591602 -0.025188845801732498 0.001971746540839711 0.0251888458017325
6.848227099318038E7 0.0019985662253988886 0.025560875803453058 0.998001433774601 -0.025560875803453058 0.998001433774601 -0.025560875803453058 0.0019985662253988886 0.025560875803453058
6.951576459256999E7 0.0020259972020128256 0.02593838456980833 0.9979740027979871 -0.02593838456980833 0.9979740027979871 -0.02593838456980833 0.0020259972020128256 0.02593838456980833
7.056485506111258E7 0.002054054005325047 0.02632145401452791 0.997945945994675 -0.02632145401452791 0.997945945994675 -0.02632145401452791 0.002054054005325047 0.02632145401452791
7.162977777745734E7 0.0020827516504524075 0.026710167371873175 0.9979172483495475 -0.026710167371873175 0.9979172483495475 -0.026710167371873175 0.0020827516504524075 0.026710167371873175
7.271077167244768E7 0.002112105654436588 0.02710460921515148 0.9978878943455635 -0.02710460921515148 0.9978878943455635 -0.02710460921515148 0.002112105654436588 0.02710460921515148
7.380807928272885E7 0.002142132058326752 0.027504865475058014 0.9978578679416732 -0.027504865475058017 0.9978578679416732 -0.027504865475058017 0.002142132058326752 0.027504865475058014
7.492194680516452E7 0.002172847449886649 0.027911023457831412 0.9978271525501132 -0.027911023457831405 0.9978271525501132 -0.027911023457831405 0.002172847449886649 0.027911023457831412
7.60526241520746E7 0.0022042689869187916 0.02832317186321006 0.9977957310130813 -0.028323171863210067 0.9977957310130813 -0.028323171863210067 0.0022042689869187916 0.02832317186321006
7.720036500730675E7 0.0022364144211980026 0.0287414008021777 0.9977635855788018 -0.0287414008021777 0.9977635855788018 -0.0287414008021777 0.0022364144211980026 0.0287414008021777
7.836542688315398E7 0.0022693021230062865 0.029165801814488263 0.9977306978769939 -0.029165801814488263 0.9977306978769939 -0.029165801814488263 0.0022693021230062865 0.029165801814488263
7.954807117813127E7 0.0023029511062607846 0.029596467885960952 0.9976970488937391 -0.02959646788596096 0.9976970488937391 -0.02959646788596096 0.0023029511062607846 0.029596467885960952
8.074856323562416E7 0.0023373810542267138 0.030033493465538692 0.9976626189457733 -0.030033493465538692 0.9976626189457733 -0.030033493465538692 0.0023373810542267138 0.030033493465538692
8.196717240342227E7 0.002372612345807219 0.030476974482103757 0.9976273876541927 -0.030476974482103757 0.9976273876541927 -0.030476974482103757 0.002372612345807219 0.030476974482103757
8.320417209415154E7 0.002408666082402509 0.030927008361046806 0.9975913339175975 -0.030927008361046806 0.9975913339175975 -0.030927008361046806 0.002408666082402509 0.030927008361046806
8.445983984661816E7 0.0024455641153310597 0.03138369404058583 0.9975544358846691 -0.03138369404058583 0.9975544358846691 -0.03138369404058583 0.0024455641153310597 0.03138369404058583
8.573445738807854E7 0.0024833290738063823 0.031847131987834225 0.9975166709261936 -0.031847131987834225 0.9975166709261936 -0.031847131987834225 0.0024833290738063823 0.031847131987834225
8.702831069744885E7 0.002521984393463602 0.03231742421461738 0.9974780156065365 -0.03231742421461738 0.9974780156065365 -0.03231742421461738 0.002521984393463602 0.03231742421461738
8.834169006946853E7 0.0025615543454311175 0.03279467429303943 0.9974384456545687 -0.03279467429303943 0.9974384456545687 -0.03279467429303943 0.0025615543454311175 0.03279467429303943
8.96748901798321E7 0.002602064065943678 0.03327898737080252 0.9973979359340563 -0.03327898737080252 0.9973979359340563 -0.03327898737080252 0.002602064065943678 0.03327898737080252
9.1028210151304E7 0.0026435395864944753 0.03377047018628212 0.9973564604135056 -0.033770470186282125 0.9973564604135056 -0.033770470186282125 0.0026435395864944753 0.03377047018628212
9.240195362083109E7 0.0026860078645252706 0.03426923108336339 0.9973139921354748 -0.03426923108336339 0.9973139921354748 -0.03426923108336339 0.0026860078645252706 0.03426923108336339
9.379642880766791E7 0.0027294968146550154 0.03477538002604378 0.997270503185345 -0.03477538002604379 0.997270503185345 -0.03477538002604379 0.0027294968146550154 0.03477538002604378
9.521194858253023E7 0.0027740353404491305 0.03528902861280868 0.9972259646595509 -0.03528902861280868 0.9972259646595509 -0.03528902861280868 0.0027740353404491305 0.03528902861280868
9.664883053779216E7 0.0028196533667332866 0.0358102900907871 0.9971803466332667 -0.0358102900907871 0.9971803466332667 -0.0358102900907871 0.0028196533667332866 0.0358102900907871
9.810739705874248E7 0.002866381872457314 0.03633927936969472 0.9971336181275426 -0.03633927936969472 0.9971336181275426 -0.03633927936969472 0.002866381872457314 0.03633927936969472
9.958797539591652E7 0.0029142529241169054 0.03687611303557297 0.9970857470758832 -0.03687611303557297 0.9970857470758832 -0.03687611303557297 0.0029142529241169054 0.03687611303557297
1.0109089773851961E8 0.0029632997097425178 0.03742090936433159 0.9970367002902575 -0.03742090936433159 0.9970367002902575 -0.03742090936433159 0.0029632997097425178 0.03742090936433159
1.0261650128895843E8 0.0030135565734671172 0.0379737883351036 0.9969864434265329 -0.0379737883351036 0.9969864434265329 -0.0379737883351036 0.0030135565734671172 0.0379737883351036
1.0416512833849736E8 0.003065059050686304 0.038534871643420544 0.9969349409493138 -0.038534871643420544 0.9969349409493138 -0.038534871643420544 0.003065059050686304 0.038534871643420544
1.0573712634405641E8 0.0031178439038264893 0.039104282714216045 0.9968821560961735 -0.039104282714216045 0.9968821560961735 -0.039104282714216045 0.0031178439038264893 0.039104282714216045
1.0733284800616828E8 0.0031719491587389164 0.03968214671466523 0.9968280508412612 -0.03968214671466523 0.9968280508412612 -0.03968214671466523 0.0031719491587389164 0.03968214671466523
1.0895265134811176E8 0.003227414141739308 0.04026859056686672 0.9967725858582607 -0.04026859056686672 0.9967725858582607 -0.04026859056686672 0.003227414141739308 0.04026859056686672
1.1059689979623953E8 0.003284279517315124 0.04086374296037381 0.9967157204826848 -0.04086374296037381 0.9967157204826848 -0.04086374296037381 0.003284279517315124 0.04086374296037381
1.1226596226151802E8 0.0033425873265243333 0.04146773436457949 0.9966574126734756 -0.04146773436457949 0.9966574126734756 -0.04146773436457949 0.0033425873265243333 0.04146773436457949
1.1396021322229806E8 0.003402381026111708 0.04208069704096006 0.9965976189738883 -0.04208069704096006 0.9965976189738883 -0.04208069704096006 0.003402381026111708 0.04208069704096006
1.1568003280833441E8 0.0034637055283705575 0.04270276505517996 0.9965362944716295 -0.04270276505517996 0.9965362944716295 -0.04270276505517996 0.0034637055283705575 0.04270276505517996
1.1742580688607343E8 0.0035266072417797553 0.043334074289059624 0.9964733927582203 -0.043334074289059624 0.9964733927582203 -0.043334074289059624 0.0035266072417797553 0.043334074289059624
1.1919792714522783E8 0.003591134112447695 0.04397476245240636 0.9964088658875523 -0.04397476245240636 0.9964088658875523 -0.04397476245240636 0.003591134112447695 0.04397476245240636
1.2099679118665792E8 0.0036573356663966716 0.04462496909470682 0.9963426643336035 -0.04462496909470682 0.9963426643336035 -0.04462496909470682 0.0036573356663966716 0.04462496909470682
1.2282280261157903E8 0.0037252630527227753 0.045284835616677954 0.9962747369472773 -0.04528483561667796 0.9962747369472773 -0.04528483561667796 0.0037252630527227753 0.045284835616677954
1.2467637111211549E8 0.003794969087668011 0.04595450528167115 0.9962050309123319 -0.04595450528167115 0.9962050309123319 -0.04595450528167115 0.003794969087668011 0.04595450528167115
1.265579125632208E8 0.0038665082996429015 0.04663412322692266 0.996133491700357 -0.04663412322692266 0.996133491700357 -0.04663412322692266 0.0038665082996429015 0.04663412322692266
1.284678491159853E8 0.003939936975239143 0.047323836474640994 0.9960600630247607 -0.047323836474640994 0.9960600630247607 -0.047323836474640994 0.003939936975239143 0.047323836474640994
1.3040660929235186E8 0.0040153132062733365 0.048023793942920556 0.9959846867937268 -0.048023793942920556 0.9959846867937268 -0.048023793942920556 0.0040153132062733365 0.048023793942920556
1.3237462808126101E8 0.0040926969379038594 0.04873414645646724 0.9959073030620961 -0.04873414645646724 0.9959073030620961 -0.04873414645646724 0.0040926969379038594 0.04873414645646724
1.3437234703624701E8 0.0041721500178642 0.04945504675712112 0.9958278499821358 -0.04945504675712112 0.9958278499821358 -0.04945504675712112 0.0041721500178642 0.04945504675712112
1.364002143745067E8 0.004253736246856961 0.050186649514157224 0.9957462637531431 -0.050186649514157224 0.9957462637531431 -0.050186649514157224 0.004253736246856961 0.050186649514157224
1.3845868507746372E8 0.00433752143015376 0.050929111334344725 0.9956624785698462 -0.050929111334344725 0.9956624785698462 -0.050929111334344725 0.00433752143015376 0.050929111334344725
1.405482209928499E8 0.00442357343044689 0.05168259077174053 0.9955764265695531 -0.05168259077174055 0.9955764265695531 -0.05168259077174055 0.00442357343044689 0.05168259077174053
1.426692909383278E8 0.0045119622219995294 0.05244724833719276 0.9954880377780004 -0.05244724833719276 0.9954880377780004 -0.05244724833719276 0.0045119622219995294 0.05244724833719276
1.4482237080667645E8 0.004602759946141697 0.05322324650752526 0.9953972400538584 -0.05322324650752526 0.9953972400538584 -0.05322324650752526 0.004602759946141697 0.05322324650752526
1.4700794367256513E8 0.004696040968159749 0.05401074973437282 0.9953039590318403 -0.05401074973437284 0.9953039590318403 -0.05401074973437284 0.004696040968159749 0.05401074973437282
1.492264999009378E8 0.00479188193562765 0.0548099244526338 0.9952081180643724 -0.0548099244526338 0.9952081180643724 -0.0548099244526338 0.00479188193562765 0.0548099244526338
1.5147853725703382E8 0.004890361838228542 0.055620939088504004 0.9951096381617714 -0.055620939088504004 0.9951096381617714 -0.055620939088504004 0.004890361838228542 0.055620939088504004
1.5376456101806876E8 0.004991562069115424 0.05644396406705345 0.9950084379308846 -0.05644396406705345 0.9950084379308846 -0.05644396406705345 0.004991562069115424 0.05644396406705345
1.5608508408660066E8 0.0050955664878598915 0.05727917181930485 0.99490443351214 -0.05727917181930485 0.99490443351214 -0.05727917181930485 0.0050955664878598915 0.05727917181930485
1.5844062710560706E8 0.0052024614850379675 0.05812673678876907 0.994797538514962 -0.05812673678876907 0.994797538514962 -0.05812673678876907 0.0052024614850379675 0.05812673678876907
1.6083171857529896E8 0.005312336048502207 0.05898683543739212 0.9946876639514978 -0.05898683543739212 0.9946876639514978 -0.05898683543739212 0.005312336048502207 0.05898683543739212
1.632588949716973E8 0.005425281831388957 0.05985964625086282 0.9945747181686111 -0.059859646250862826 0.9945747181686111 -0.059859646250862826 0.005425281831388957 0.05985964625086282
1.6572270086699936E8 0.0055413932219098355 0.06074534974323012 0.9944586067780901 -0.06074534974323012 0.9944586067780901 -0.06074534974323012 0.0055413932219098355 0.06074534974323012
1.6822368905176118E8 0.005660767414976078 0.06164412846077424 0.994339232585024 -0.06164412846077423 0.994339232585024 -0.06164412846077423 0.005660767414976078 0.06164412846077424
1.7076242065892437E8 0.005783504485704337 0.06255616698507432 0.9942164955142958 -0.06255616698507432 0.9942164955142958 -0.06255616698507432 0.005783504485704337 0.06255616698507432
1.7333946528971428E8 0.00590970746485209 0.06348165193521176 0.9940902925351481 -0.06348165193521177 0.9940902925351481 -0.06348165193521177 0.00590970746485209 0.06348165193521176
1.7595540114143828E8 0.00603948241623066 0.0644207719690461 0.9939605175837695 -0.0644207719690461 0.9939605175837695 -0.0644207719690461 0.00603948241623066 0.0644207719690461
1.786108151372127E8 0.006172938516143169 0.06537371778349638 0.9938270614838569 -0.06537371778349638 0.9938270614838569 -0.06537371778349638 0.006172938516143169 0.06537371778349638
1.8130630305764765E8 0.006310188134894695 0.06634068211375993 0.9936898118651052 -0.06634068211375993 0.9936898118651052 -0.06634068211375993 0.006310188134894695 0.06634068211375993
1.840424696745189E8 0.006451346920421003 0.06732185973139529 0.9935486530795787 -0.06732185973139528 0.9935486530795787 -0.06732185973139528 0.006451346920421003 0.06732185973139529
1.8681992888645732E8 0.006596533884081998 0.06831744744119461 0.9934034661159178 -0.06831744744119461 0.9934034661159178 -0.06831744744119461 0.006596533884081998 0.06831744744119461
1.8963930385668582E8 0.0067458714886653726 0.06932764407676792 0.9932541285113347 -0.06932764407676792 0.9932541285113347 -0.06932764407676792 0.0067458714886653726 0.06932764407676792
1.92501227152835E8 0.006899485738645144 0.0703526504947567 0.9931005142613546 -0.0703526504947567 0.9931005142613546 -0.0703526504947567 0.006899485738645144 0.0703526504947567
1.9540634088886917E8 0.007057506272739416 0.07139266956759413 0.9929424937272606 -0.07139266956759413 0.9929424937272606 -0.07139266956759413 0.007057506272739416 0.07139266956759413
1.983552968691535E8 0.007220066458810624 0.07244790617472274 0.9927799335411892 -0.07244790617472274 0.9927799335411892 -0.07244790617472274 0.007220066458810624 0.07244790617472274
2.0134875673469606E8 0.00738730349115104 0.0735185671921803 0.992612696508849 -0.07351856719218032 0.992612696508849 -0.07351856719218032 0.00738730349115104 0.0735185671921803
2.0438739211159652E8 0.00755935849019538 0.0746048614804588 0.9924406415098047 -0.0746048614804588 0.9924406415098047 -0.0746048614804588 0.00755935849019538 0.0746048614804588
2.074718847617352E8 0.0077363766047013685 0.07570699987053947 0.9922636233952985 -0.07570699987053948 0.9922636233952985 -0.07570699987053948 0.0077363766047013685 0.07570699987053947
2.106029267357361E8 0.007918507116438428 0.07682519514800314 0.9920814928835616 -0.07682519514800314 0.9920814928835616 -0.07682519514800314 0.007918507116438428 0.07682519514800314
2.1378122052823865E8 0.00810590354742347 0.07795966203511086 0.9918940964525765 -0.07795966203511086 0.9918940964525765 -0.07795966203511086 0.00810590354742347 0.07795966203511086
2.1700747923551247E8 0.008298723769741787 0.07911061717074769 0.9917012762302579 -0.07911061717074769 0.9917012762302579 -0.07911061717074769 0.008298723769741787 0.07911061717074769
2.2028242671545094E8 0.00849713011798988 0.0802782790881165 0.9915028698820102 -0.0802782790881165 0.9915028698820102 -0.0802782790881165 0.00849713011798988 0.0802782790881165
2.23606797749979E8 0.008701289504375945 0.08146286819006739 0.9912987104956241 -0.08146286819006739 0.9912987104956241 -0.08146286819006739 0.008701289504375945 0.08146286819006739
2.2698133820991236E8 0.008911373536512335 0.08266460672194224 0.9910886264634875 -0.08266460672194224 0.9910886264634875 -0.08266460672194224 0.008911373536512335 0.08266460672194224
2.3040680522230446E8 0.009127558637933065 0.08388371874181107 0.9908724413620669 -0.08388371874181107 0.9908724413620669 -0.08388371874181107 0.009127558637933065 0.08388371874181107
2.338839673403185E8 0.009350026171367844 0.08512043008797196 0.9906499738286321 -0.08512043008797196 0.9906499738286321 -0.08512043008797196 0.009350026171367844 0.08512043008797196
2.37413604715664E8 0.009578962564802677 0.08637496834358271 0.9904210374351974 -0.08637496834358273 0.9904210374351974 -0.08637496834358273 0.009578962564802677 0.08637496834358271
2.4099650927363476E8 0.009814559440355367 0.08764756279828737 0.9901854405596446 -0.08764756279828737 0.9901854405596446 -0.08764756279828737 0.009814559440355367 0.08764756279828737
2.446334848907889E8 0.010057013745992402 0.08893844440669622 0.9899429862540075 -0.08893844440669622 0.9899429862540075 -0.08893844440669622 0.010057013745992402 0.08893844440669622
