!Murata Part Number: LQW18AN2N2D10
!These Parameters are Measured in Series Mode Connection
!       o--[Z]--o
!Port1              Port2
!       o-------o
!
!Freq. Start=50[MHz] Stop=20[GHz], 401[Steps]
# Hz S RI R 50
!Freq.(Hz) S11(Real) S11(Imag) S21(Real) S21(Imag) S12(Real) S12(Imag) S22(Real) S22(Imag)
5.0E7 2.7504179999169204E-4 0.006970267956031613 0.9997249582000081 -0.006970267956031613 0.9997249582000081 -0.006970267956031613 2.7504179999169204E-4 0.006970267956031613
5.0754570186123446E7 2.7862074518233916E-4 0.007074140526301603 0.9997213792548176 -0.007074140526301603 0.9997213792548176 -0.007074140526301603 2.7862074518233916E-4 0.007074140526301603
5.152052789556263E7 2.822724078749769E-4 0.007179543612884565 0.999717727592125 -0.007179543612884565 0.999717727592125 -0.007179543612884565 2.822724078749769E-4 0.007179543612884565
5.229804498202928E7 2.859977729065067E-4 0.007286499774931648 0.9997140022270934 -0.007286499774931648 0.9997140022270934 -0.007286499774931648 2.859977729065067E-4 0.007286499774931648
5.308729589274893E7 2.8979783507680984E-4 0.007395031930363417 0.9997102021649231 -0.007395031930363419 0.9997102021649231 -0.007395031930363419 2.8979783507680984E-4 0.007395031930363417
5.388845770760058E7 2.9367360046817935E-4 0.007505163362655641 0.9997063263995317 -0.0075051633626556395 0.9997063263995317 -0.0075051633626556395 2.9367360046817935E-4 0.007505163362655641
5.470171017884717E7 2.9762608789027427E-4 0.007616917727718514 0.9997023739121097 -0.007616917727718514 0.9997023739121097 -0.007616917727718514 2.9762608789027427E-4 0.007616917727718514
5.5527235771465644E7 3.016563304541857E-4 0.007730319060865066 0.9996983436695459 -0.007730319060865066 0.9996983436695459 -0.007730319060865066 3.016563304541857E-4 0.007730319060865066
5.6365219704085544E7 3.057653772788845E-4 0.007845391783864111 0.9996942346227211 -0.007845391783864113 0.9996942346227211 -0.007845391783864113 3.057653772788845E-4 0.007845391783864111
5.721584999054556E7 3.099542953329864E-4 0.007962160712072994 0.9996900457046669 -0.007962160712072994 0.9996900457046669 -0.007962160712072994 3.099542953329864E-4 0.007962160712072994
5.807931748207712E7 3.1422417141440187E-4 0.00808065106164508 0.9996857758285856 -0.00808065106164508 0.9996857758285856 -0.00808065106164508 3.1422417141440187E-4 0.00808065106164508
5.8955815910124585E7 3.185761142700461E-4 0.008200888456806835 0.9996814238857299 -0.008200888456806835 0.9996814238857299 -0.008200888456806835 3.185761142700461E-4 0.008200888456806835
5.984554192981184E7 3.230112568573825E-4 0.008322898937199149 0.9996769887431425 -0.008322898937199149 0.9996769887431425 -0.008322898937199149 3.230112568573825E-4 0.008322898937199149
6.074869516406457E7 3.27530758749136E-4 0.00844670896527742 0.9996724692412509 -0.00844670896527742 0.9996724692412509 -0.00844670896527742 3.27530758749136E-4 0.00844670896527742
6.166547824839868E7 3.3213580868208435E-4 0.00857234543376499 0.9996678641913178 -0.008572345433764988 0.9996678641913178 -0.008572345433764988 3.3213580868208435E-4 0.00857234543376499
6.2596096876384385E7 3.3682762725036747E-4 0.008699835673154287 0.9996631723727495 -0.008699835673154287 0.9996631723727495 -0.008699835673154287 3.3682762725036747E-4 0.008699835673154287
6.354075984579668E7 3.4160746974330037E-4 0.008829207459250192 0.9996583925302568 -0.008829207459250194 0.9996583925302568 -0.008829207459250194 3.4160746974330037E-4 0.008829207459250192
6.449967910546205E7 3.4647662912721183E-4 0.008960489020750103 0.9996535233708729 -0.008960489020750102 0.9996535233708729 -0.008960489020750102 3.4647662912721183E-4 0.008960489020750103
6.547306980281226E7 3.514364391703576E-4 0.009093709046855332 0.9996485635608297 -0.009093709046855332 0.9996485635608297 -0.009093709046855332 3.514364391703576E-4 0.009093709046855332
6.646115033215589E7 3.564882777094964E-4 0.009228896694908588 0.9996435117222905 -0.009228896694908588 0.9996435117222905 -0.009228896694908588 3.564882777094964E-4 0.009228896694908588
6.746414238367817E7 3.616335700562679E-4 0.009366081598052413 0.9996383664299436 -0.009366081598052413 0.9996383664299436 -0.009366081598052413 3.616335700562679E-4 0.009366081598052413
6.848227099318038E7 3.6687379254105154E-4 0.009505293872903728 0.999633126207459 -0.009505293872903728 0.999633126207459 -0.009505293872903728 3.6687379254105154E-4 0.009505293872903728
6.951576459256999E7 3.722104761915833E-4 0.009646564127239955 0.9996277895238085 -0.009646564127239955 0.9996277895238085 -0.009646564127239955 3.722104761915833E-4 0.009646564127239955
7.056485506111258E7 3.776452105431745E-4 0.009789923467692339 0.9996223547894568 -0.009789923467692339 0.9996223547894568 -0.009789923467692339 3.776452105431745E-4 0.009789923467692339
7.162977777745734E7 3.831796475770105E-4 0.009935403507442568 0.999616820352423 -0.009935403507442568 0.999616820352423 -0.009935403507442568 3.831796475770105E-4 0.009935403507442568
7.271077167244768E7 3.888155057826524E-4 0.010083036373919186 0.9996111844942174 -0.010083036373919186 0.9996111844942174 -0.010083036373919186 3.888155057826524E-4 0.010083036373919186
7.380807928272885E7 3.945545743405323E-4 0.010232854716490564 0.9996054454256593 -0.010232854716490566 0.9996054454256593 -0.010232854716490566 3.945545743405323E-4 0.010232854716490564
7.492194680516452E7 4.0039871741995753E-4 0.010384891714151816 0.99959960128258 -0.010384891714151816 0.99959960128258 -0.010384891714151816 4.0039871741995753E-4 0.010384891714151816
7.60526241520746E7 4.063498785878871E-4 0.010539181083203416 0.999593650121412 -0.010539181083203418 0.999593650121412 -0.010539181083203418 4.063498785878871E-4 0.010539181083203416
7.720036500730675E7 4.1241008532353783E-4 0.010695757084919887 0.9995875899146762 -0.010695757084919886 0.9995875899146762 -0.010695757084919886 4.1241008532353783E-4 0.010695757084919887
7.836542688315398E7 4.185814536337173E-4 0.010854654533207289 0.9995814185463663 -0.010854654533207289 0.9995814185463663 -0.010854654533207289 4.185814536337173E-4 0.010854654533207289
7.954807117813127E7 4.248661927636624E-4 0.011015908802248987 0.9995751338072364 -0.011015908802248987 0.9995751338072364 -0.011015908802248987 4.248661927636624E-4 0.011015908802248987
8.074856323562416E7 4.3126660999810213E-4 0.011179555834139586 0.9995687333900019 -0.011179555834139586 0.9995687333900019 -0.011179555834139586 4.3126660999810213E-4 0.011179555834139586
8.196717240342227E7 4.377851155472377E-4 0.011345632146507538 0.9995622148844527 -0.011345632146507538 0.9995622148844527 -0.011345632146507538 4.377851155472377E-4 0.011345632146507538
8.320417209415154E7 4.444242275123688E-4 0.011514174840127544 0.9995555757724875 -0.011514174840127544 0.9995555757724875 -0.011514174840127544 4.444242275123688E-4 0.011514174840127544
8.445983984661816E7 4.511865769259791E-4 0.01168522160652438 0.999548813423074 -0.011685221606524382 0.999548813423074 -0.011685221606524382 4.511865769259791E-4 0.01168522160652438
8.573445738807854E7 4.580749128612203E-4 0.011858810735570352 0.9995419250871388 -0.011858810735570352 0.9995419250871388 -0.011858810735570352 4.580749128612203E-4 0.011858810735570352
8.702831069744885E7 4.6509210760592413E-4 0.012034981123079214 0.9995349078923941 -0.012034981123079214 0.9995349078923941 -0.012034981123079214 4.6509210760592413E-4 0.012034981123079214
8.834169006946853E7 4.7224116189649364E-4 0.012213772278399853 0.9995277588381036 -0.012213772278399853 0.9995277588381036 -0.012213772278399853 4.7224116189649364E-4 0.012213772278399853
8.96748901798321E7 4.7952521020730405E-4 0.012395224332013541 0.9995204747897927 -0.012395224332013541 0.9995204747897927 -0.012395224332013541 4.7952521020730405E-4 0.012395224332013541
9.1028210151304E7 4.8694752609157205E-4 0.01257937804313928 0.9995130524739083 -0.01257937804313928 0.9995130524739083 -0.01257937804313928 4.8694752609157205E-4 0.01257937804313928
9.240195362083109E7 4.945115275699946E-4 0.012766274807351815 0.99950548847243 -0.012766274807351815 0.99950548847243 -0.012766274807351815 4.945115275699946E-4 0.012766274807351815
9.379642880766791E7 5.022207825638873E-4 0.012955956664217873 0.9994977792174361 -0.012955956664217873 0.9994977792174361 -0.012955956664217873 5.022207825638873E-4 0.012955956664217873
9.521194858253023E7 5.100790143699664E-4 0.01314846630495615 0.99948992098563 -0.01314846630495615 0.99948992098563 -0.01314846630495615 5.100790143699664E-4 0.01314846630495615
9.664883053779216E7 5.180901071744022E-4 0.013343847080127194 0.9994819098928254 -0.013343847080127194 0.9994819098928254 -0.013343847080127194 5.180901071744022E-4 0.013343847080127194
9.810739705874248E7 5.262581116042681E-4 0.013542143007359602 0.9994737418883959 -0.013542143007359602 0.9994737418883959 -0.013542143007359602 5.262581116042681E-4 0.013542143007359602
9.958797539591652E7 5.345872503150286E-4 0.013743398779119226 0.9994654127496848 -0.013743398779119228 0.9994654127496848 -0.013743398779119228 5.345872503150286E-4 0.013743398779119226
1.0109089773851961E8 5.430819236132647E-4 0.013947659770528486 0.9994569180763867 -0.013947659770528486 0.9994569180763867 -0.013947659770528486 5.430819236132647E-4 0.013947659770528486
1.0261650128895843E8 5.517467151143808E-4 0.014154972047242744 0.9994482532848856 -0.014154972047242744 0.9994482532848856 -0.014154972047242744 5.517467151143808E-4 0.014154972047242744
1.0416512833849736E8 5.605863974356364E-4 0.014365382373391468 0.9994394136025643 -0.014365382373391468 0.9994394136025643 -0.014365382373391468 5.605863974356364E-4 0.014365382373391468
1.0573712634405641E8 5.696059379254044E-4 0.0145789382195914 0.9994303940620747 -0.0145789382195914 0.9994303940620747 -0.0145789382195914 5.696059379254044E-4 0.0145789382195914
1.0733284800616828E8 5.788105044301581E-4 0.014795687771039434 0.9994211894955698 -0.014795687771039437 0.9994211894955698 -0.014795687771039437 5.788105044301581E-4 0.014795687771039434
1.0895265134811176E8 5.88205471101283E-4 0.015015679935692893 0.9994117945288988 -0.01501567993569289 0.9994117945288988 -0.01501567993569289 5.88205471101283E-4 0.015015679935692893
1.1059689979623953E8 5.977964242443858E-4 0.015238964352544777 0.9994022035757559 -0.01523896435254478 0.9994022035757559 -0.01523896435254478 5.977964242443858E-4 0.015238964352544777
1.1226596226151802E8 6.075891682143512E-4 0.015465591400001625 0.9993924108317858 -0.015465591400001625 0.9993924108317858 -0.015465591400001625 6.075891682143512E-4 0.015465591400001625
1.1396021322229806E8 6.175897313599874E-4 0.015695612204371573 0.9993824102686399 -0.01569561220437157 0.9993824102686399 -0.01569561220437157 6.175897313599874E-4 0.015695612204371573
1.1568003280833441E8 6.278043720226219E-4 0.015929078648469895 0.9993721956279776 -0.0159290786484699 0.9993721956279776 -0.0159290786484699 6.278043720226219E-4 0.015929078648469895
1.1742580688607343E8 6.382395845935881E-4 0.0161660433803495 0.9993617604154065 -0.0161660433803495 0.9993617604154065 -0.0161660433803495 6.382395845935881E-4 0.0161660433803495
1.1919792714522783E8 6.489021056360454E-4 0.016406559822163377 0.9993510978943642 -0.016406559822163377 0.9993510978943642 -0.016406559822163377 6.489021056360454E-4 0.016406559822163377
1.2099679118665792E8 6.597989200770734E-4 0.016650682179165828 0.9993402010799229 -0.016650682179165825 0.9993402010799229 -0.016650682179165825 6.597989200770734E-4 0.016650682179165828
1.2282280261157903E8 6.709372674764844E-4 0.016898465448859337 0.9993290627325235 -0.016898465448859337 0.9993290627325235 -0.016898465448859337 6.709372674764844E-4 0.016898465448859337
1.2467637111211549E8 6.82324648379236E-4 0.01714996543029339 0.9993176753516209 -0.01714996543029339 0.9993176753516209 -0.01714996543029339 6.82324648379236E-4 0.01714996543029339
1.265579125632208E8 6.939688307587593E-4 0.017405238733521327 0.9993060311692412 -0.017405238733521324 0.9993060311692412 -0.017405238733521324 6.939688307587593E-4 0.017405238733521327
1.284678491159853E8 7.058778565589444E-4 0.017664342789221223 0.9992941221434409 -0.017664342789221223 0.9992941221434409 -0.017664342789221223 7.058778565589444E-4 0.017664342789221223
1.3040660929235186E8 7.180600483428839E-4 0.017927335858486302 0.9992819399516574 -0.017927335858486305 0.9992819399516574 -0.017927335858486305 7.180600483428839E-4 0.017927335858486302
1.3237462808126101E8 7.30524016056843E-4 0.018194277042790013 0.999269475983943 -0.01819427704279001 0.999269475983943 -0.01819427704279001 7.30524016056843E-4 0.018194277042790013
1.3437234703624701E8 7.43278663918262E-4 0.018465226294130898 0.9992567213360818 -0.018465226294130895 0.9992567213360818 -0.018465226294130895 7.43278663918262E-4 0.018465226294130898
1.364002143745067E8 7.563331974368862E-4 0.018740244425361652 0.999243666802563 -0.018740244425361652 0.999243666802563 -0.018740244425361652 7.563331974368862E-4 0.018740244425361652
1.3845868507746372E8 7.696971305784153E-4 0.019019393120706767 0.9992303028694216 -0.01901939312070677 0.9992303028694216 -0.01901939312070677 7.696971305784153E-4 0.019019393120706767
1.405482209928499E8 7.833802930803217E-4 0.019302734946472666 0.9992166197069199 -0.019302734946472666 0.9992166197069199 -0.019302734946472666 7.833802930803217E-4 0.019302734946472666
1.426692909383278E8 7.973928379297097E-4 0.01959033336195386 0.9992026071620704 -0.01959033336195386 0.9992026071620704 -0.01959033336195386 7.973928379297097E-4 0.01959033336195386
1.4482237080667645E8 8.117452490133337E-4 0.01988225273053863 0.9991882547509867 -0.01988225273053863 0.9991882547509867 -0.01988225273053863 8.117452490133337E-4 0.01988225273053863
1.4700794367256513E8 8.264483489500621E-4 0.020178558331016994 0.9991735516510497 -0.02017855833101699 0.9991735516510497 -0.02017855833101699 8.264483489500621E-4 0.020178558331016994
1.492264999009378E8 8.415133071162838E-4 0.020479316369093847 0.9991584866928838 -0.020479316369093843 0.9991584866928838 -0.020479316369093843 8.415133071162838E-4 0.020479316369093847
1.5147853725703382E8 8.569516478749022E-4 0.020784593989109465 0.9991430483521252 -0.020784593989109465 0.9991430483521252 -0.020784593989109465 8.569516478749022E-4 0.020784593989109465
1.5376456101806876E8 8.727752590187381E-4 0.02109445928596978 0.9991272247409813 -0.021094459285969775 0.9991272247409813 -0.021094459285969775 8.727752590187381E-4 0.02109445928596978
1.5608508408660066E8 8.88996400439296E-4 0.021408981317287995 0.9991110035995607 -0.021408981317288 0.9991110035995607 -0.021408981317288 8.88996400439296E-4 0.021408981317287995
1.5844062710560706E8 9.056277130319928E-4 0.02172823011573929 0.999094372286968 -0.02172823011573929 0.999094372286968 -0.02172823011573929 9.056277130319928E-4 0.02172823011573929
1.6083171857529896E8 9.226822278490998E-4 0.022052276701630066 0.9990773177721509 -0.022052276701630066 0.9990773177721509 -0.022052276701630066 9.226822278490998E-4 0.022052276701630066
1.632588949716973E8 9.401733755117457E-4 0.022381193095682577 0.9990598266244881 -0.022381193095682577 0.9990598266244881 -0.022381193095682577 9.401733755117457E-4 0.022381193095682577
1.6572270086699936E8 9.581149958925184E-4 0.022715052332036443 0.9990418850041075 -0.022715052332036446 0.9990418850041075 -0.022715052332036446 9.581149958925184E-4 0.022715052332036443
1.6822368905176118E8 9.765213480802721E-4 0.023053928471467096 0.9990234786519196 -0.0230539284714671 0.9990234786519196 -0.0230539284714671 9.765213480802721E-4 0.023053928471467096
1.7076242065892437E8 9.954071206389587E-4 0.023397896614822434 0.999004592879361 -0.023397896614822437 0.999004592879361 -0.023397896614822437 9.954071206389587E-4 0.023397896614822434
1.7333946528971428E8 0.0010147874421723884 0.023747032916677544 0.9989852125578276 -0.02374703291667754 0.9989852125578276 -0.02374703291667754 0.0010147874421723884 0.023747032916677544
1.7595540114143828E8 0.0010346778922070386 0.024101414599208164 0.998965322107793 -0.024101414599208164 0.998965322107793 -0.024101414599208164 0.0010346778922070386 0.024101414599208164
1.786108151372127E8 0.0010550945124051584 0.024461119966282835 0.9989449054875947 -0.024461119966282835 0.9989449054875947 -0.024461119966282835 0.0010550945124051584 0.024461119966282835
1.8130630305764765E8 0.0010760538181206316 0.02482622841777378 0.9989239461818793 -0.02482622841777378 0.9989239461818793 -0.02482622841777378 0.0010760538181206316 0.02482622841777378
1.840424696745189E8 0.0010975728103102553 0.025196820464086497 0.9989024271896898 -0.0251968204640865 0.9989024271896898 -0.0251968204640865 0.0010975728103102553 0.025196820464086497
1.8681992888645732E8 0.001119668987813299 0.02557297774090774 0.9988803310121867 -0.02557297774090774 0.9988803310121867 -0.02557297774090774 0.001119668987813299 0.02557297774090774
1.8963930385668582E8 0.0011423603600124801 0.02595478302417178 0.9988576396399875 -0.02595478302417178 0.9988576396399875 -0.02595478302417178 0.0011423603600124801 0.02595478302417178
1.92501227152835E8 0.001165665459889731 0.026342320245244362 0.9988343345401103 -0.02634232024524436 0.9988343345401103 -0.02634232024524436 0.001165665459889731 0.026342320245244362
1.9540634088886917E8 0.0011896033574904314 0.02673567450632406 0.9988103966425096 -0.02673567450632406 0.9988103966425096 -0.02673567450632406 0.0011896033574904314 0.02673567450632406
1.983552968691535E8 0.0012141936738100942 0.027134932096060365 0.9987858063261897 -0.027134932096060365 0.9987858063261897 -0.027134932096060365 0.0012141936738100942 0.027134932096060365
2.0134875673469606E8 0.001239456595117842 0.027540180505387993 0.9987605434048822 -0.027540180505387986 0.9987605434048822 -0.027540180505387986 0.001239456595117842 0.027540180505387993
2.0438739211159652E8 0.0012654128877313488 0.02795150844357637 0.9987345871122687 -0.027951508443576377 0.9987345871122687 -0.027951508443576377 0.0012654128877313488 0.02795150844357637
2.074718847617352E8 0.0012920839132583852 0.028369005854494082 0.9987079160867415 -0.028369005854494082 0.9987079160867415 -0.028369005854494082 0.0012920839132583852 0.028369005854494082
2.106029267357361E8 0.00131949164432044 0.028792763933086534 0.9986805083556796 -0.028792763933086534 0.9986805083556796 -0.028792763933086534 0.00131949164432044 0.028792763933086534
2.1378122052823865E8 0.001347658680774452 0.029222875142066482 0.9986523413192254 -0.029222875142066482 0.9986523413192254 -0.029222875142066482 0.001347658680774452 0.029222875142066482
2.1700747923551247E8 0.0013766082664491133 0.02965943322881597 0.9986233917335509 -0.02965943322881597 0.9986233917335509 -0.02965943322881597 0.0013766082664491133 0.02965943322881597
2.2028242671545094E8 0.0014063643064127307 0.030102533242498224 0.9985936356935873 -0.030102533242498224 0.9985936356935873 -0.030102533242498224 0.0014063643064127307 0.030102533242498224
2.23606797749979E8 0.0014369513847902248 0.03055227155137824 0.9985630486152096 -0.03055227155137824 0.9985630486152096 -0.03055227155137824 0.0014369513847902248 0.03055227155137824
2.2698133820991236E8 0.0014683947831474191 0.031008745860350392 0.9985316052168526 -0.0310087458603504 0.9985316052168526 -0.0310087458603504 0.0014683947831474191 0.031008745860350392
2.3040680522230446E8 0.0015007204994613547 0.0314720552286709 0.9984992795005386 -0.0314720552286709 0.9984992795005386 -0.0314720552286709 0.0015007204994613547 0.0314720552286709
2.338839673403185E8 0.001533955267696088 0.03194230008789327 0.9984660447323039 -0.03194230008789327 0.9984660447323039 -0.03194230008789327 0.001533955267696088 0.03194230008789327
2.37413604715664E8 0.0015681265780040528 0.0324195822600043 0.9984318734219959 -0.0324195822600043 0.9984318734219959 -0.0324195822600043 0.0015681265780040528 0.0324195822600043
2.4099650927363476E8 0.0016032626975738165 0.03290400497575776 0.998396737302426 -0.03290400497575776 0.998396737302426 -0.03290400497575776 0.0016032626975738165 0.03290400497575776
