!Murata Part Number: LQG15HS6N2C02
!These Parameters are Measured in Series Mode Connection
!       o--[Z]--o
!Port1              Port2
!       o-------o
!
!Freq. Start=50[MHz] Stop=20[GHz], 401[Steps]
# Hz S RI R 50
!Freq.(Hz) S11(Real) S11(Imag) S21(Real) S21(Imag) S12(Real) S12(Imag) S22(Real) S22(Imag)
5.0E7 0.0030645258247946486 0.02081392916561572 0.9969354741752053 -0.020813929165615717 0.9969354741752053 -0.020813929165615717 0.0030645258247946486 0.02081392916561572
5.0754570186123446E7 0.0030968511112443166 0.021111017050740453 0.9969031488887555 -0.021111017050740453 0.9969031488887555 -0.021111017050740453 0.0030968511112443166 0.021111017050740453
5.152052789556263E7 0.003129760070993239 0.021412305620344064 0.9968702399290069 -0.021412305620344064 0.9968702399290069 -0.021412305620344064 0.003129760070993239 0.021412305620344064
5.229804498202928E7 0.0031632609567010996 0.02171785339945744 0.996836739043299 -0.02171785339945744 0.996836739043299 -0.02171785339945744 0.0031632609567010996 0.02171785339945744
5.308729589274893E7 0.0031973620899856375 0.022027719952176984 0.9968026379100143 -0.022027719952176988 0.9968026379100143 -0.022027719952176988 0.0031973620899856375 0.022027719952176984
5.388845770760058E7 0.003232071874267125 0.022341965908941486 0.996767928125733 -0.022341965908941486 0.996767928125733 -0.022341965908941486 0.003232071874267125 0.022341965908941486
5.470171017884717E7 0.0032673988087376107 0.022660652993954287 0.9967326011912623 -0.022660652993954287 0.9967326011912623 -0.022660652993954287 0.0032673988087376107 0.022660652993954287
5.5527235771465644E7 0.0033033515034750906 0.022983844052698866 0.9966966484965251 -0.02298384405269887 0.9966966484965251 -0.02298384405269887 0.0033033515034750906 0.022983844052698866
5.6365219704085544E7 0.0033399386957192576 0.023311603079493853 0.9966600613042808 -0.023311603079493853 0.9966600613042808 -0.023311603079493853 0.0033399386957192576 0.023311603079493853
5.721584999054556E7 0.0033771692673221707 0.02364399524503231 0.9966228307326779 -0.02364399524503231 0.9966228307326779 -0.02364399524503231 0.0033771692673221707 0.02364399524503231
5.807931748207712E7 0.0034150522633832714 0.023981086923848594 0.9965849477366165 -0.023981086923848597 0.9965849477366165 -0.023981086923848597 0.0034150522633832714 0.023981086923848594
5.8955815910124585E7 0.0034535969120746105 0.02432294572165553 0.9965464030879253 -0.02432294572165553 0.9965464030879253 -0.02432294572165553 0.0034535969120746105 0.02432294572165553
5.984554192981184E7 0.0034928126456579703 0.024669640502493605 0.9965071873543421 -0.024669640502493605 0.9965071873543421 -0.024669640502493605 0.0034928126456579703 0.024669640502493605
6.074869516406457E7 0.0035327091226917315 0.02502124141563415 0.9964672908773083 -0.025021241415634155 0.9964672908773083 -0.025021241415634155 0.0035327091226917315 0.02502124141563415
6.166547824839868E7 0.003573296251421138 0.025377819922178184 0.9964267037485788 -0.025377819922178184 0.9964267037485788 -0.025377819922178184 0.003573296251421138 0.025377819922178184
6.2596096876384385E7 0.003614584214341526 0.025739448821293007 0.9963854157856584 -0.025739448821293007 0.9963854157856584 -0.025739448821293007 0.003614584214341526 0.025739448821293007
6.354075984579668E7 0.0036565834939200274 0.02610620227602992 0.99634341650608 -0.026106202276029916 0.99634341650608 -0.026106202276029916 0.0036565834939200274 0.02610620227602992
6.449967910546205E7 0.0036993048994571867 0.026478155838667052 0.996300695100543 -0.026478155838667052 0.996300695100543 -0.026478155838667052 0.0036993048994571867 0.026478155838667052
6.547306980281226E7 0.0037427595950658703 0.026855386475523046 0.9962572404049341 -0.026855386475523046 0.9962572404049341 -0.026855386475523046 0.0037427595950658703 0.026855386475523046
6.646115033215589E7 0.0037869591287412008 0.027237972591189673 0.9962130408712587 -0.027237972591189666 0.9962130408712587 -0.027237972591189666 0.0037869591287412008 0.027237972591189673
6.746414238367817E7 0.003831915462491288 0.027625994052132695 0.9961680845375086 -0.027625994052132695 0.9961680845375086 -0.027625994052132695 0.003831915462491288 0.027625994052132695
6.848227099318038E7 0.003877641003495237 0.028019532209614176 0.9961223589965048 -0.028019532209614176 0.9961223589965048 -0.028019532209614176 0.003877641003495237 0.028019532209614176
6.951576459256999E7 0.00392414863625146 0.028418669921891272 0.9960758513637485 -0.028418669921891272 0.9960758513637485 -0.028418669921891272 0.00392414863625146 0.028418669921891272
7.056485506111258E7 0.003971451755676389 0.028823491575650416 0.9960285482443236 -0.028823491575650423 0.9960285482443236 -0.028823491575650423 0.003971451755676389 0.028823491575650416
7.162977777745734E7 0.004019564301110869 0.02923408310663917 0.995980435698889 -0.02923408310663917 0.995980435698889 -0.02923408310663917 0.004019564301110869 0.02923408310663917
7.271077167244768E7 0.0040685007911890935 0.02965053201946164 0.995931499208811 -0.02965053201946164 0.995931499208811 -0.02965053201946164 0.0040685007911890935 0.02965053201946164
7.380807928272885E7 0.004118276359522832 0.030072927406507473 0.9958817236404773 -0.03007292740650747 0.9958817236404773 -0.03007292740650747 0.004118276359522832 0.030072927406507473
7.492194680516452E7 0.004168906791151959 0.030501359965988763 0.9958310932088481 -0.030501359965988763 0.9958310932088481 -0.030501359965988763 0.004168906791151959 0.030501359965988763
7.60526241520746E7 0.004220408559710977 0.030935922019063415 0.9957795914402889 -0.030935922019063415 0.9957795914402889 -0.030935922019063415 0.004220408559710977 0.030935922019063415
7.720036500730675E7 0.0042727988652601625 0.03137670752602787 0.9957272011347399 -0.03137670752602787 0.9957272011347399 -0.03137670752602787 0.0042727988652601625 0.03137670752602787
7.836542688315398E7 0.004326095672729501 0.03182381210156696 0.9956739043272704 -0.03182381210156697 0.9956739043272704 -0.03182381210156697 0.004326095672729501 0.03182381210156696
7.954807117813127E7 0.00438031775092343 0.03227733302905327 0.9956196822490765 -0.03227733302905328 0.9956196822490765 -0.03227733302905328 0.00438031775092343 0.03227733302905327
8.074856323562416E7 0.004435484712034561 0.03273736927389233 0.9955645152879655 -0.032737369273892335 0.9955645152879655 -0.032737369273892335 0.004435484712034561 0.03273736927389233
8.196717240342227E7 0.0044916170516154565 0.03320402149591583 0.9955083829483847 -0.03320402149591583 0.9955083829483847 -0.03320402149591583 0.0044916170516154565 0.03320402149591583
8.320417209415154E7 0.004548736188958423 0.03367739206082828 0.9954512638110414 -0.03367739206082828 0.9954512638110414 -0.03367739206082828 0.004548736188958423 0.03367739206082828
8.445983984661816E7 0.0046068645078349915 0.034157585050717754 0.9953931354921651 -0.034157585050717754 0.9953931354921651 -0.034157585050717754 0.0046068645078349915 0.034157585050717754
8.573445738807854E7 0.0046660253975484576 0.03464470627364525 0.9953339746024514 -0.03464470627364525 0.9953339746024514 -0.03464470627364525 0.0046660253975484576 0.03464470627364525
8.702831069744885E7 0.004726243294255357 0.03513886327233156 0.9952737567057446 -0.03513886327233155 0.9952737567057446 -0.03513886327233155 0.004726243294255357 0.03513886327233156
8.834169006946853E7 0.004787543722514128 0.03564016533196397 0.9952124562774859 -0.035640165331963965 0.9952124562774859 -0.035640165331963965 0.004787543722514128 0.03564016533196397
8.96748901798321E7 0.0048499533370224114 0.036148723487149315 0.9951500466629778 -0.03614872348714932 0.9951500466629778 -0.03614872348714932 0.0048499533370224114 0.036148723487149315
9.1028210151304E7 0.004913499964507538 0.03666465052804283 0.9950865000354924 -0.036664650528042825 0.9950865000354924 -0.036664650528042825 0.004913499964507538 0.03666465052804283
9.240195362083109E7 0.004978212645738337 0.0371880610056851 0.9950217873542615 -0.0371880610056851 0.9950217873542615 -0.0371880610056851 0.004978212645738337 0.0371880610056851
9.379642880766791E7 0.0050441216776302466 0.03771907123658301 0.9949558783223699 -0.03771907123658301 0.9949558783223699 -0.03771907123658301 0.0050441216776302466 0.03771907123658301
9.521194858253023E7 0.005111258655419542 0.03825779930657166 0.9948887413445806 -0.03825779930657166 0.9948887413445806 -0.03825779930657166 0.005111258655419542 0.03825779930657166
9.664883053779216E7 0.005179656514886878 0.03880436507399768 0.9948203434851132 -0.03880436507399768 0.9948203434851132 -0.03880436507399768 0.005179656514886878 0.03880436507399768
9.810739705874248E7 0.0052493495746144415 0.03935889017226471 0.9947506504253856 -0.03935889017226472 0.9947506504253856 -0.03935889017226472 0.0052493495746144415 0.03935889017226471
9.958797539591652E7 0.005320373578265555 0.03992149801178401 0.9946796264217344 -0.03992149801178401 0.9946796264217344 -0.03992149801178401 0.005320373578265555 0.03992149801178401
1.0109089773851961E8 0.005392765736880008 0.04049231378137374 0.99460723426312 -0.04049231378137374 0.99460723426312 -0.04049231378137374 0.005392765736880008 0.04049231378137374
1.0261650128895843E8 0.005466564771182884 0.04107146444915073 0.9945334352288171 -0.04107146444915073 0.9945334352288171 -0.04107146444915073 0.005466564771182884 0.04107146444915073
1.0416512833849736E8 0.005541810953909289 0.04165907876295973 0.9944581890460906 -0.04165907876295973 0.9944581890460906 -0.04165907876295973 0.005541810953909289 0.04165907876295973
1.0573712634405641E8 0.005618546152151586 0.04225528725038304 0.9943814538478484 -0.04225528725038304 0.9943814538478484 -0.04225528725038304 0.005618546152151586 0.04225528725038304
1.0733284800616828E8 0.005696813869740588 0.04286022221837537 0.9943031861302596 -0.04286022221837537 0.9943031861302596 -0.04286022221837537 0.005696813869740588 0.04286022221837537
1.0895265134811176E8 0.005776659289676034 0.043474017752565604 0.994223340710324 -0.043474017752565604 0.994223340710324 -0.043474017752565604 0.005776659289676034 0.043474017752565604
1.1059689979623953E8 0.005858129316626176 0.04409680971626753 0.9941418706833739 -0.04409680971626753 0.9941418706833739 -0.04409680971626753 0.005858129316626176 0.04409680971626753
1.1226596226151802E8 0.005941272619520249 0.04472873574923912 0.9940587273804796 -0.04472873574923912 0.9940587273804796 -0.04472873574923912 0.005941272619520249 0.04472873574923912
1.1396021322229806E8 0.006026139674261481 0.04536993526622913 0.9939738603257384 -0.04536993526622913 0.9939738603257384 -0.04536993526622913 0.006026139674261481 0.04536993526622913
1.1568003280833441E8 0.006112782806591968 0.04602054945534649 0.993887217193408 -0.04602054945534649 0.993887217193408 -0.04602054945534649 0.006112782806591968 0.04602054945534649
1.1742580688607343E8 0.006201256235144341 0.04668072127628726 0.9937987437648554 -0.04668072127628726 0.9937987437648554 -0.04668072127628726 0.006201256235144341 0.04668072127628726
1.1919792714522783E8 0.006291616114718244 0.04735059545845013 0.9937083838852817 -0.04735059545845012 0.9937083838852817 -0.04735059545845012 0.006291616114718244 0.04735059545845013
1.2099679118665792E8 0.006383920579822846 0.048030318498969556 0.993616079420177 -0.048030318498969556 0.993616079420177 -0.048030318498969556 0.006383920579822846 0.048030318498969556
1.2282280261157903E8 0.006478229788529335 0.048720038660692834 0.9935217702114707 -0.048720038660692834 0.9935217702114707 -0.048720038660692834 0.006478229788529335 0.048720038660692834
1.2467637111211549E8 0.006574605966679869 0.04941990597012409 0.9934253940333202 -0.04941990597012409 0.9934253940333202 -0.04941990597012409 0.006574605966679869 0.04941990597012409
1.265579125632208E8 0.006673113452501905 0.05013007221535583 0.9933268865474981 -0.05013007221535582 0.9933268865474981 -0.05013007221535582 0.006673113452501905 0.05013007221535583
1.284678491159853E8 0.006773818741678762 0.05085069094400504 0.9932261812583213 -0.05085069094400504 0.9932261812583213 -0.05085069094400504 0.006773818741678762 0.05085069094400504
1.3040660929235186E8 0.006876790532929193 0.05158191746116807 0.9931232094670709 -0.05158191746116808 0.9931232094670709 -0.05158191746116808 0.006876790532929193 0.05158191746116807
1.3237462808126101E8 0.006982099774150401 0.052323908827405695 0.9930179002258498 -0.052323908827405695 0.9930179002258498 -0.052323908827405695 0.006982099774150401 0.052323908827405695
1.3437234703624701E8 0.007089819709180198 0.05307682385676574 0.9929101802908198 -0.05307682385676572 0.9929101802908198 -0.05307682385676572 0.007089819709180198 0.05307682385676574
1.364002143745067E8 0.007200025925235319 0.05384082311484883 0.9927999740747648 -0.05384082311484883 0.9927999740747648 -0.05384082311484883 0.007200025925235319 0.05384082311484883
1.3845868507746372E8 0.0073127964010838205 0.054616068916918815 0.9926872035989163 -0.054616068916918815 0.9926872035989163 -0.054616068916918815 0.0073127964010838205 0.054616068916918815
1.405482209928499E8 0.0074282115560103815 0.05540272532605707 0.9925717884439896 -0.05540272532605707 0.9925717884439896 -0.05540272532605707 0.0074282115560103815 0.05540272532605707
1.426692909383278E8 0.0075463542996338446 0.05620095815135659 0.9924536457003663 -0.05620095815135659 0.9924536457003663 -0.05620095815135659 0.0075463542996338446 0.05620095815135659
1.4482237080667645E8 0.007667310082637002 0.05701093494614936 0.9923326899173631 -0.05701093494614936 0.9923326899173631 -0.05701093494614936 0.007667310082637002 0.05701093494614936
1.4700794367256513E8 0.007791166948468954 0.057832825006258054 0.9922088330515311 -0.05783282500625804 0.9922088330515311 -0.05783282500625804 0.007791166948468954 0.057832825006258054
1.492264999009378E8 0.007918015586080556 0.058666799368259415 0.9920819844139196 -0.05866679936825943 0.9920819844139196 -0.05866679936825943 0.007918015586080556 0.058666799368259415
1.5147853725703382E8 0.0080479493837539 0.05951303080774623 0.991952050616246 -0.05951303080774623 0.991952050616246 -0.05951303080774623 0.0080479493837539 0.05951303080774623
1.5376456101806876E8 0.008181064484086696 0.06037169383757052 0.9918189355159134 -0.06037169383757052 0.9918189355159134 -0.06037169383757052 0.008181064484086696 0.06037169383757052
1.5608508408660066E8 0.008317459840192666 0.06124296470604972 0.9916825401598075 -0.061242964706049736 0.9916825401598075 -0.061242964706049736 0.008317459840192666 0.06124296470604972
1.5844062710560706E8 0.008457237273179184 0.06212702139511556 0.991542762726821 -0.06212702139511558 0.991542762726821 -0.06212702139511558 0.008457237273179184 0.06212702139511556
1.6083171857529896E8 0.008600501530963395 0.0630240436183827 0.9913994984690366 -0.0630240436183827 0.9913994984690366 -0.0630240436183827 0.008600501530963395 0.0630240436183827
1.632588949716973E8 0.008747360348488279 0.06393421281911292 0.9912526396515118 -0.06393421281911292 0.9912526396515118 -0.06393421281911292 0.008747360348488279 0.06393421281911292
1.6572270086699936E8 0.008897924509400417 0.06485771216805016 0.9911020754905994 -0.06485771216805016 0.9911020754905994 -0.06485771216805016 0.008897924509400417 0.06485771216805016
1.6822368905176118E8 0.009052307909251323 0.06579472656109758 0.9909476920907486 -0.06579472656109758 0.9909476920907486 -0.06579472656109758 0.009052307909251323 0.06579472656109758
1.7076242065892437E8 0.009210627620284685 0.06674544261680944 0.9907893723797153 -0.06674544261680944 0.9907893723797153 -0.06674544261680944 0.009210627620284685 0.06674544261680944
1.7333946528971428E8 0.00937300395787252 0.06771004867366702 0.9906269960421275 -0.067710048673667 0.9906269960421275 -0.067710048673667 0.00937300395787252 0.06771004867366702
1.7595540114143828E8 0.009539560548663593 0.06868873478710795 0.9904604394513363 -0.06868873478710795 0.9904604394513363 -0.06868873478710795 0.009539560548663593 0.06868873478710795
1.786108151372127E8 0.009710424400508627 0.0696816927262768 0.9902895755994914 -0.0696816927262768 0.9902895755994914 -0.0696816927262768 0.009710424400508627 0.0696816927262768
1.8130630305764765E8 0.009885725974227563 0.07068911597046318 0.9901142740257722 -0.07068911597046318 0.9901142740257722 -0.07068911597046318 0.009885725974227563 0.07068911597046318
1.840424696745189E8 0.010065599257285437 0.07171119970519327 0.9899344007427145 -0.07171119970519327 0.9899344007427145 -0.07171119970519327 0.010065599257285437 0.07171119970519327
1.8681992888645732E8 0.010250181839445023 0.07274814081793979 0.9897498181605549 -0.0727481408179398 0.9897498181605549 -0.0727481408179398 0.010250181839445023 0.07274814081793979
1.8963930385668582E8 0.010439614990465593 0.07380013789341265 0.9895603850095344 -0.07380013789341265 0.9895603850095344 -0.07380013789341265 0.010439614990465593 0.07380013789341265
1.92501227152835E8 0.010634043739919772 0.07486739120839453 0.9893659562600803 -0.07486739120839453 0.9893659562600803 -0.07486739120839453 0.010634043739919772 0.07486739120839453
1.9540634088886917E8 0.010833616959201578 0.07595010272608019 0.9891663830407984 -0.07595010272608019 0.9891663830407984 -0.07595010272608019 0.010833616959201578 0.07595010272608019
1.983552968691535E8 0.011038487445802365 0.07704847608988145 0.9889615125541976 -0.07704847608988145 0.9889615125541976 -0.07704847608988145 0.011038487445802365 0.07704847608988145
2.0134875673469606E8 0.011248812009933006 0.07816271661665511 0.988751187990067 -0.0781627166166551 0.988751187990067 -0.0781627166166551 0.011248812009933006 0.07816271661665511
2.0438739211159652E8 0.011464751563574203 0.07929303128931049 0.9885352484364258 -0.0792930312893105 0.9885352484364258 -0.0792930312893105 0.011464751563574203 0.07929303128931049
2.074718847617352E8 0.01168647121203991 0.08043962874875211 0.98831352878796 -0.08043962874875211 0.98831352878796 -0.08043962874875211 0.01168647121203991 0.08043962874875211
2.106029267357361E8 0.011914140348142262 0.08160271928510972 0.9880858596518578 -0.08160271928510973 0.9880858596518578 -0.08160271928510973 0.011914140348142262 0.08160271928510972
2.1378122052823865E8 0.01214793274905028 0.08278251482820645 0.9878520672509498 -0.08278251482820645 0.9878520672509498 -0.08278251482820645 0.01214793274905028 0.08278251482820645
2.1700747923551247E8 0.012388026675938829 0.08397922893721319 0.9876119733240614 -0.08397922893721319 0.9876119733240614 -0.08397922893721319 0.012388026675938829 0.08397922893721319
2.2028242671545094E8 0.012634604976528206 0.0851930767894334 0.9873653950234716 -0.0851930767894334 0.9873653950234716 -0.0851930767894334 0.012634604976528206 0.0851930767894334
2.23606797749979E8 0.01288785519061983 0.08642427516816023 0.9871121448093804 -0.08642427516816023 0.9871121448093804 -0.08642427516816023 0.01288785519061983 0.08642427516816023
2.2698133820991236E8 0.013147969658737945 0.08767304244954324 0.9868520303412621 -0.08767304244954324 0.9868520303412621 -0.08767304244954324 0.013147969658737945 0.08767304244954324
2.3040680522230446E8 0.013415145633992558 0.08893959858839849 0.9865848543660074 -0.08893959858839849 0.9865848543660074 -0.08893959858839849 0.013415145633992558 0.08893959858839849
2.338839673403185E8 0.013689585397283772 0.09022416510288941 0.986310414602716 -0.09022416510288941 0.986310414602716 -0.09022416510288941 0.013689585397283772 0.09022416510288941
2.37413604715664E8 0.01397149637597354 0.0915269650580029 0.9860285036240264 -0.0915269650580029 0.9860285036240264 -0.0915269650580029 0.01397149637597354 0.0915269650580029
2.4099650927363476E8 0.01426109126615588 0.09284822304773606 0.9857389087338442 -0.09284822304773604 0.9857389087338442 -0.09284822304773604 0.01426109126615588 0.09284822304773606
2.446334848907889E8 0.014558588158662907 0.09418816517590552 0.985441411841337 -0.09418816517590552 0.985441411841337 -0.09418816517590552 0.014558588158662907 0.09418816517590552
