!Murata Part Number: LQG15HS1N8B02
!These Parameters are Measured in Series Mode Connection
!       o--[Z]--o
!Port1              Port2
!       o-------o
!
!Freq. Start=50[MHz] Stop=20[GHz], 401[Steps]
# Hz S RI R 50
!Freq.(Hz) S11(Real) S11(Imag) S21(Real) S21(Imag) S12(Real) S12(Imag) S22(Real) S22(Imag)
5.0E7 0.0012741905462483622 0.006932270670829919 0.9987258094537517 -0.006932270670829919 0.9987258094537517 -0.006932270670829919 0.0012741905462483622 0.006932270670829919
5.0754570186123446E7 0.001284611411862243 0.007027181065000572 0.9987153885881376 -0.007027181065000572 0.9987153885881376 -0.007027181065000572 0.001284611411862243 0.007027181065000572
5.152052789556263E7 0.0012950696942680745 0.007123417324907449 0.998704930305732 -0.007123417324907451 0.998704930305732 -0.007123417324907451 0.0012950696942680745 0.007123417324907449
5.229804498202928E7 0.0013055638633192282 0.007221001947517511 0.9986944361366806 -0.007221001947517511 0.9986944361366806 -0.007221001947517511 0.0013055638633192282 0.007221001947517511
5.308729589274893E7 0.0013160924911961391 0.007319957871695995 0.9986839075088039 -0.007319957871695995 0.9986839075088039 -0.007319957871695995 0.0013160924911961391 0.007319957871695995
5.388845770760058E7 0.001326654259785957 0.0074203084797456005 0.998673345740214 -0.0074203084797456005 0.998673345740214 -0.0074203084797456005 0.001326654259785957 0.0074203084797456005
5.470171017884717E7 0.0013372479679022956 0.00752207759868197 0.9986627520320978 -0.00752207759868197 0.9986627520320978 -0.00752207759868197 0.0013372479679022956 0.00752207759868197
5.5527235771465644E7 0.0013478725383267063 0.00762528950126127 0.9986521274616733 -0.00762528950126127 0.9986521274616733 -0.00762528950126127 0.0013478725383267063 0.00762528950126127
5.6365219704085544E7 0.001358527024654876 0.007729968906776908 0.9986414729753452 -0.007729968906776908 0.9986414729753452 -0.007729968906776908 0.001358527024654876 0.007729968906776908
5.721584999054556E7 0.0013692106179319684 0.007836140981643508 0.9986307893820681 -0.00783614098164351 0.9986307893820681 -0.00783614098164351 0.0013692106179319684 0.007836140981643508
5.807931748207712E7 0.0013799226530630674 0.007943831339787405 0.998620077346937 -0.007943831339787405 0.998620077346937 -0.007943831339787405 0.0013799226530630674 0.007943831339787405
5.8955815910124585E7 0.0013906626149862357 0.008053066042863611 0.9986093373850138 -0.008053066042863611 0.9986093373850138 -0.008053066042863611 0.0013906626149862357 0.008053066042863611
5.984554192981184E7 0.0014014301445973627 0.008163871600320047 0.9985985698554027 -0.008163871600320047 0.9985985698554027 -0.008163871600320047 0.0014014301445973627 0.008163871600320047
6.074869516406457E7 0.0014122250444175942 0.008276274969330307 0.9985877749555824 -0.008276274969330309 0.9985877749555824 -0.008276274969330309 0.0014122250444175942 0.008276274969330307
6.166547824839868E7 0.0014230472839958591 0.008390303554616722 0.9985769527160041 -0.008390303554616722 0.9985769527160041 -0.008390303554616722 0.0014230472839958591 0.008390303554616722
6.2596096876384385E7 0.0014338970050406681 0.008505985208185674 0.9985661029949592 -0.008505985208185674 0.9985661029949592 -0.008505985208185674 0.0014338970050406681 0.008505985208185674
6.354075984579668E7 0.001444774526277048 0.008623348228997343 0.9985552254737229 -0.008623348228997343 0.9985552254737229 -0.008623348228997343 0.001444774526277048 0.008623348228997343
6.449967910546205E7 0.0014556803480261418 0.008742421362591972 0.9985443196519735 -0.008742421362591974 0.9985443196519735 -0.008742421362591974 0.0014556803480261418 0.008742421362591972
6.547306980281226E7 0.0014666151565066075 0.008863233800694648 0.9985333848434933 -0.008863233800694646 0.9985333848434933 -0.008863233800694646 0.0014666151565066075 0.008863233800694648
6.646115033215589E7 0.0014775798278585585 0.00898581518082024 0.9985224201721415 -0.00898581518082024 0.9985224201721415 -0.00898581518082024 0.0014775798278585585 0.00898581518082024
6.746414238367817E7 0.0014885754318922787 0.009110195585899886 0.9985114245681076 -0.009110195585899887 0.9985114245681076 -0.009110195585899887 0.0014885754318922787 0.009110195585899886
6.848227099318038E7 0.001499603235565442 0.00923640554394974 0.9985003967644346 -0.00923640554394974 0.9985003967644346 -0.00923640554394974 0.001499603235565442 0.00923640554394974
6.951576459256999E7 0.0015106647061938956 0.009364476027802144 0.9984893352938061 -0.009364476027802144 0.9984893352938061 -0.009364476027802144 0.0015106647061938956 0.009364476027802144
7.056485506111258E7 0.0015217615144024383 0.009494438454918751 0.9984782384855976 -0.009494438454918751 0.9984782384855976 -0.009494438454918751 0.0015217615144024383 0.009494438454918751
7.162977777745734E7 0.0015328955368231457 0.009626324687304096 0.9984671044631765 -0.009626324687304096 0.9984671044631765 -0.009626324687304096 0.0015328955368231457 0.009626324687304096
7.271077167244768E7 0.0015440688585500102 0.00976016703153763 0.9984559311414499 -0.00976016703153763 0.9984559311414499 -0.00976016703153763 0.0015440688585500102 0.00976016703153763
7.380807928272885E7 0.0015552837753595766 0.009895998238940698 0.9984447162246404 -0.009895998238940698 0.9984447162246404 -0.009895998238940698 0.0015552837753595766 0.009895998238940698
7.492194680516452E7 0.0015665427957082423 0.01003385150589459 0.9984334572042918 -0.01003385150589459 0.9984334572042918 -0.01003385150589459 0.0015665427957082423 0.01003385150589459
7.60526241520746E7 0.001577848642517661 0.010173760474324223 0.9984221513574822 -0.010173760474324224 0.9984221513574822 -0.010173760474324224 0.001577848642517661 0.010173760474324223
7.720036500730675E7 0.0015892042547603986 0.010315759232361273 0.9984107957452398 -0.010315759232361273 0.9984107957452398 -0.010315759232361273 0.0015892042547603986 0.010315759232361273
7.836542688315398E7 0.001600612788858569 0.010459882315199233 0.9983993872111414 -0.010459882315199233 0.9983993872111414 -0.010459882315199233 0.001600612788858569 0.010459882315199233
7.954807117813127E7 0.0016120776199086805 0.010606164706151914 0.9983879223800913 -0.010606164706151914 0.9983879223800913 -0.010606164706151914 0.0016120776199086805 0.010606164706151914
8.074856323562416E7 0.0016236023427462897 0.01075464183792571 0.9983763976572538 -0.010754641837925712 0.9983763976572538 -0.010754641837925712 0.0016236023427462897 0.01075464183792571
8.196717240342227E7 0.0016351907728643466 0.010905349594114828 0.9983648092271357 -0.010905349594114828 0.9983648092271357 -0.010905349594114828 0.0016351907728643466 0.010905349594114828
8.320417209415154E7 0.001646846947199291 0.011058324310927622 0.9983531530528008 -0.011058324310927622 0.9983531530528008 -0.011058324310927622 0.001646846947199291 0.011058324310927622
8.445983984661816E7 0.0016585751247990335 0.011213602779150992 0.9983414248752011 -0.011213602779150993 0.9983414248752011 -0.011213602779150993 0.0016585751247990335 0.011213602779150992
8.573445738807854E7 0.0016703797873869725 0.011371222246358897 0.9983296202126131 -0.011371222246358895 0.9983296202126131 -0.011371222246358895 0.0016703797873869725 0.011371222246358897
8.702831069744885E7 0.001682265639836069 0.011531220419369855 0.998317734360164 -0.011531220419369857 0.998317734360164 -0.011531220419369857 0.001682265639836069 0.011531220419369855
8.834169006946853E7 0.0016942376105668698 0.011693635466957454 0.9983057623894332 -0.011693635466957454 0.9983057623894332 -0.011693635466957454 0.0016942376105668698 0.011693635466957454
8.96748901798321E7 0.0017063008518830762 0.01185850602281687 0.9982936991481169 -0.01185850602281687 0.9982936991481169 -0.01185850602281687 0.0017063008518830762 0.01185850602281687
9.1028210151304E7 0.0017184607402579947 0.012025871188789705 0.9982815392597421 -0.012025871188789703 0.9982815392597421 -0.012025871188789703 0.0017184607402579947 0.012025871188789705
9.240195362083109E7 0.0017307228765847456 0.01219577053834825 0.9982692771234153 -0.01219577053834825 0.9982692771234153 -0.01219577053834825 0.0017307228765847456 0.01219577053834825
9.379642880766791E7 0.001743093086402777 0.012368244120340075 0.9982569069135971 -0.012368244120340075 0.9982569069135971 -0.012368244120340075 0.001743093086402777 0.012368244120340075
9.521194858253023E7 0.0017555774201126351 0.0125433324629926 0.9982444225798875 -0.0125433324629926 0.9982444225798875 -0.0125433324629926 0.0017555774201126351 0.0125433324629926
9.664883053779216E7 0.0017681821531905153 0.01272107657817715 0.9982318178468095 -0.012721076578177148 0.9982318178468095 -0.012721076578177148 0.0017681821531905153 0.01272107657817715
9.810739705874248E7 0.0017809137864134644 0.012901517965931072 0.9982190862135868 -0.012901517965931072 0.9982190862135868 -0.012901517965931072 0.0017809137864134644 0.012901517965931072
9.958797539591652E7 0.0017937790461055969 0.01308469861923631 0.9982062209538944 -0.01308469861923631 0.9982062209538944 -0.01308469861923631 0.0017937790461055969 0.01308469861923631
1.0109089773851961E8 0.001806784884414986 0.013270661029052177 0.998193215115585 -0.013270661029052177 0.998193215115585 -0.013270661029052177 0.001806784884414986 0.013270661029052177
1.0261650128895843E8 0.0018199384796303252 0.013459448189599883 0.9981800615203698 -0.013459448189599883 0.9981800615203698 -0.013459448189599883 0.0018199384796303252 0.013459448189599883
1.0416512833849736E8 0.0018332472365457616 0.013651103603896068 0.9981667527634542 -0.013651103603896068 0.9981667527634542 -0.013651103603896068 0.0018332472365457616 0.013651103603896068
1.0573712634405641E8 0.0018467187868816675 0.013845671289532345 0.9981532812131181 -0.013845671289532343 0.9981532812131181 -0.013845671289532343 0.0018467187868816675 0.013845671289532345
1.0733284800616828E8 0.0018603609897684605 0.0140431957846978 0.9981396390102316 -0.0140431957846978 0.9981396390102316 -0.0140431957846978 0.0018603609897684605 0.0140431957846978
1.0895265134811176E8 0.0018741819322999258 0.014243722154441266 0.9981258180677001 -0.014243722154441266 0.9981258180677001 -0.014243722154441266 0.0018741819322999258 0.014243722154441266
1.1059689979623953E8 0.0018881899301618577 0.014447295997170283 0.9981118100698381 -0.014447295997170283 0.9981118100698381 -0.014447295997170283 0.0018881899301618577 0.014447295997170283
1.1226596226151802E8 0.0019023935283412057 0.014653963451383641 0.9980976064716589 -0.014653963451383641 0.9980976064716589 -0.014653963451383641 0.0019023935283412057 0.014653963451383641
1.1396021322229806E8 0.0019168015019203073 0.014863771202634572 0.9980831984980798 -0.014863771202634572 0.9980831984980798 -0.014863771202634572 0.0019168015019203073 0.014863771202634572
1.1568003280833441E8 0.001931422856960193 0.015076766490721939 0.9980685771430399 -0.015076766490721939 0.9980685771430399 -0.015076766490721939 0.001931422856960193 0.015076766490721939
1.1742580688607343E8 0.0019462668314764195 0.015292997117106917 0.9980537331685237 -0.015292997117106917 0.9980537331685237 -0.015292997117106917 0.0019462668314764195 0.015292997117106917
1.1919792714522783E8 0.001961342896510287 0.015512511452552925 0.9980386571034896 -0.015512511452552925 0.9980386571034896 -0.015512511452552925 0.001961342896510287 0.015512511452552925
1.2099679118665792E8 0.001976660757297908 0.015735358444987253 0.9980233392427019 -0.015735358444987253 0.9980233392427019 -0.015735358444987253 0.001976660757297908 0.015735358444987253
1.2282280261157903E8 0.001992230354539038 0.01596158762758283 0.9980077696454611 -0.01596158762758283 0.9980077696454611 -0.01596158762758283 0.001992230354539038 0.01596158762758283
1.2467637111211549E8 0.002008061865767214 0.01619124912705934 0.9979919381342328 -0.01619124912705934 0.9979919381342328 -0.01619124912705934 0.002008061865767214 0.01619124912705934
1.265579125632208E8 0.002024165706822378 0.01642439367220345 0.9979758342931776 -0.016424393672203455 0.9979758342931776 -0.016424393672203455 0.002024165706822378 0.01642439367220345
1.284678491159853E8 0.0020405525334267842 0.01666107260260806 0.9979594474665733 -0.01666107260260806 0.9979594474665733 -0.01666107260260806 0.0020405525334267842 0.01666107260260806
1.3040660929235186E8 0.002057233242864794 0.016901337877631754 0.9979427667571352 -0.016901337877631754 0.9979427667571352 -0.016901337877631754 0.002057233242864794 0.016901337877631754
1.3237462808126101E8 0.0020742189757668606 0.017145242085579777 0.9979257810242331 -0.017145242085579777 0.9979257810242331 -0.017145242085579777 0.0020742189757668606 0.017145242085579777
1.3437234703624701E8 0.0020915211179978496 0.01739283845310852 0.9979084788820021 -0.01739283845310852 0.9979084788820021 -0.01739283845310852 0.0020915211179978496 0.01739283845310852
1.364002143745067E8 0.002109151302649795 0.017644180854856695 0.9978908486973501 -0.017644180854856695 0.9978908486973501 -0.017644180854856695 0.002109151302649795 0.017644180854856695
1.3845868507746372E8 0.0021271214121390348 0.01789932382330664 0.9978728785878611 -0.017899323823306643 0.9978728785878611 -0.017899323823306643 0.0021271214121390348 0.01789932382330664
1.405482209928499E8 0.0021454435804077305 0.018158322558880113 0.9978545564195924 -0.018158322558880117 0.9978545564195924 -0.018158322558880117 0.0021454435804077305 0.018158322558880113
1.426692909383278E8 0.0021641301952298655 0.018421232940273903 0.9978358698047703 -0.018421232940273903 0.9978358698047703 -0.018421232940273903 0.0021641301952298655 0.018421232940273903
1.4482237080667645E8 0.0021831939006218964 0.018688111535041123 0.997816806099378 -0.01868811153504112 0.997816806099378 -0.01868811153504112 0.0021831939006218964 0.018688111535041123
1.4700794367256513E8 0.0022026475993584694 0.018959015610425116 0.9977973524006415 -0.018959015610425116 0.9977973524006415 -0.018959015610425116 0.0022026475993584694 0.018959015610425116
1.492264999009378E8 0.0022225044555939087 0.019234003144453705 0.9977774955444063 -0.019234003144453705 0.9977774955444063 -0.019234003144453705 0.0022225044555939087 0.019234003144453705
1.5147853725703382E8 0.002242777897590448 0.019513132837302074 0.9977572221024095 -0.019513132837302074 0.9977572221024095 -0.019513132837302074 0.002242777897590448 0.019513132837302074
1.5376456101806876E8 0.0022634816205547186 0.019796464122934173 0.9977365183794453 -0.01979646412293417 0.9977365183794453 -0.01979646412293417 0.0022634816205547186 0.019796464122934173
1.5608508408660066E8 0.0022846295895843733 0.020084057181032407 0.9977153704104156 -0.020084057181032407 0.9977153704104156 -0.020084057181032407 0.0022846295895843733 0.020084057181032407
1.5844062710560706E8 0.0023062360427273843 0.020375972949227116 0.9976937639572726 -0.02037597294922712 0.9976937639572726 -0.02037597294922712 0.0023062360427273843 0.020375972949227116
1.6083171857529896E8 0.002328315494157191 0.020672273135637752 0.9976716845058428 -0.02067227313563775 0.9976716845058428 -0.02067227313563775 0.002328315494157191 0.020672273135637752
1.632588949716973E8 0.002350882737467555 0.02097302023173854 0.9976491172625325 -0.02097302023173854 0.9976491172625325 -0.02097302023173854 0.002350882737467555 0.02097302023173854
1.6572270086699936E8 0.002373952849091856 0.02127827752556244 0.9976260471509082 -0.02127827752556244 0.9976260471509082 -0.02127827752556244 0.002373952849091856 0.02127827752556244
1.6822368905176118E8 0.0023975411918524285 0.021588109115257794 0.9976024588081476 -0.021588109115257794 0.9976024588081476 -0.021588109115257794 0.0023975411918524285 0.021588109115257794
1.7076242065892437E8 0.0024216634186465026 0.021902579923013143 0.9975783365813534 -0.02190257992301314 0.9975783365813534 -0.02190257992301314 0.0024216634186465026 0.021902579923013143
1.7333946528971428E8 0.002446335476276412 0.022221755709365916 0.9975536645237234 -0.02222175570936592 0.9975536645237234 -0.02222175570936592 0.002446335476276412 0.022221755709365916
1.7595540114143828E8 0.0024715736094328487 0.022545703087912213 0.9975284263905673 -0.022545703087912213 0.9975284263905673 -0.022545703087912213 0.0024715736094328487 0.022545703087912213
1.786108151372127E8 0.0024973943648412115 0.022874489540434736 0.9975026056351588 -0.022874489540434736 0.9975026056351588 -0.022874489540434736 0.0024973943648412115 0.022874489540434736
1.8130630305764765E8 0.0025238145955823513 0.023208183432467194 0.9974761854044176 -0.023208183432467194 0.9974761854044176 -0.023208183432467194 0.0025238145955823513 0.023208183432467194
1.840424696745189E8 0.002550851465600498 0.023546854029313603 0.9974491485343995 -0.023546854029313603 0.9974491485343995 -0.023546854029313603 0.002550851465600498 0.023546854029313603
1.8681992888645732E8 0.002578522454412582 0.02389057151254193 0.9974214775455875 -0.02389057151254193 0.9974214775455875 -0.02389057151254193 0.002578522454412582 0.02389057151254193
1.8963930385668582E8 0.0026068453620347134 0.024239406996971247 0.9973931546379653 -0.024239406996971247 0.9973931546379653 -0.024239406996971247 0.0026068453620347134 0.024239406996971247
1.92501227152835E8 0.002635838314143299 0.024593432548172783 0.9973641616858565 -0.024593432548172783 0.9973641616858565 -0.024593432548172783 0.002635838314143299 0.024593432548172783
1.9540634088886917E8 0.002665519767489896 0.02495272120050472 0.99733448023251 -0.02495272120050472 0.99733448023251 -0.02495272120050472 0.002665519767489896 0.02495272120050472
1.983552968691535E8 0.002695908515590773 0.02531734697570131 0.9973040914844092 -0.02531734697570131 0.9973040914844092 -0.02531734697570131 0.002695908515590773 0.02531734697570131
2.0134875673469606E8 0.002727023694713954 0.025687384902036807 0.9972729763052859 -0.025687384902036814 0.9972729763052859 -0.025687384902036814 0.002727023694713954 0.025687384902036807
2.0438739211159652E8 0.002758884790188473 0.02606291103408469 0.9972411152098116 -0.02606291103408469 0.9972411152098116 -0.02606291103408469 0.002758884790188473 0.02606291103408469
2.074718847617352E8 0.0027915116430624813 0.02644400247309218 0.9972084883569377 -0.02644400247309218 0.9972084883569377 -0.02644400247309218 0.0027915116430624813 0.02644400247309218
2.106029267357361E8 0.002824924457138977 0.02683073738799069 0.9971750755428608 -0.02683073738799069 0.9971750755428608 -0.02683073738799069 0.002824924457138977 0.02683073738799069
2.1378122052823865E8 0.002859143806419913 0.027223195037061405 0.9971408561935801 -0.027223195037061405 0.9971408561935801 -0.027223195037061405 0.002859143806419913 0.027223195037061405
2.1700747923551247E8 0.002894190642991528 0.027621455790275366 0.9971058093570083 -0.027621455790275366 0.9971058093570083 -0.027621455790275366 0.002894190642991528 0.027621455790275366
2.2028242671545094E8 0.0029300863053859797 0.02802560115232654 0.9970699136946138 -0.028025601152326548 0.9970699136946138 -0.028025601152326548 0.0029300863053859797 0.02802560115232654
2.23606797749979E8 0.0029668525274563805 0.0284357137863756 0.9970331474725436 -0.0284357137863756 0.9970331474725436 -0.0284357137863756 0.0029668525274563805 0.0284357137863756
2.2698133820991236E8 0.0030045114478045704 0.028851877538521097 0.9969954885521954 -0.0288518775385211 0.9969954885521954 -0.0288518775385211 0.0030045114478045704 0.028851877538521097
2.3040680522230446E8 0.0030430856198030705 0.029274177463013876 0.996956914380197 -0.029274177463013876 0.996956914380197 -0.029274177463013876 0.0030430856198030705 0.029274177463013876
2.338839673403185E8 0.0030825980222547846 0.029702699848228868 0.9969174019777451 -0.029702699848228865 0.9969174019777451 -0.029702699848228865 0.0030825980222547846 0.029702699848228868
2.37413604715664E8 0.003123072070736127 0.030137532243407428 0.9968769279292639 -0.030137532243407428 0.9968769279292639 -0.030137532243407428 0.003123072070736127 0.030137532243407428
