!Murata Part Number: LQW18AN3N9C00
!These Parameters are Measured in Series Mode Connection
!       o--[Z]--o
!Port1              Port2
!       o-------o
!
!Freq. Start=50[MHz] Stop=20[GHz], 401[Steps]
# Hz S RI R 50
!Freq.(Hz) S11(Real) S11(Imag) S21(Real) S21(Imag) S12(Real) S12(Imag) S22(Real) S22(Imag)
5.0E7 8.312525426272305E-4 0.01108480265116812 0.9991687474573727 -0.01108480265116812 0.9991687474573727 -0.01108480265116812 8.312525426272305E-4 0.01108480265116812
5.0754570186123446E7 8.392651179425063E-4 0.01124866061135124 0.9991607348820577 -0.01124866061135124 0.9991607348820577 -0.01124866061135124 8.392651179425063E-4 0.01124866061135124
5.152052789556263E7 8.474291543086126E-4 0.01141492015989884 0.9991525708456915 -0.01141492015989884 0.9991525708456915 -0.01141492015989884 8.474291543086126E-4 0.01141492015989884
5.229804498202928E7 8.557468166192365E-4 0.011583616986309267 0.9991442531833805 -0.011583616986309265 0.9991442531833805 -0.011583616986309265 8.557468166192365E-4 0.011583616986309267
5.308729589274893E7 8.642203247456455E-4 0.011754787376948512 0.9991357796752542 -0.011754787376948513 0.9991357796752542 -0.011754787376948513 8.642203247456455E-4 0.011754787376948512
5.388845770760058E7 8.728519586205295E-4 0.011928468225890592 0.9991271480413795 -0.01192846822589059 0.9991271480413795 -0.01192846822589059 8.728519586205295E-4 0.011928468225890592
5.470171017884717E7 8.816440635893206E-4 0.012104697045788029 0.9991183559364106 -0.012104697045788029 0.9991183559364106 -0.012104697045788029 8.816440635893206E-4 0.012104697045788029
5.5527235771465644E7 8.905990560280384E-4 0.012283511978761598 0.9991094009439719 -0.012283511978761598 0.9991094009439719 -0.012283511978761598 8.905990560280384E-4 0.012283511978761598
5.6365219704085544E7 8.99719429225936E-4 0.012464951807299004 0.999100280570774 -0.012464951807299004 0.999100280570774 -0.012464951807299004 8.99719429225936E-4 0.012464951807299004
5.721584999054556E7 9.090077595303459E-4 0.012649055965152199 0.9990909922404697 -0.0126490559651522 0.9990909922404697 -0.0126490559651522 9.090077595303459E-4 0.012649055965152199
5.807931748207712E7 9.184667127503421E-4 0.012835864548223554 0.9990815332872496 -0.012835864548223554 0.9990815332872496 -0.012835864548223554 9.184667127503421E-4 0.012835864548223554
5.8955815910124585E7 9.280990508150413E-4 0.01302541832543133 0.9990719009491847 -0.013025418325431333 0.9990719009491847 -0.013025418325431333 9.280990508150413E-4 0.01302541832543133
5.984554192981184E7 9.379076386816121E-4 0.013217758749545581 0.9990620923613183 -0.013217758749545581 0.9990620923613183 -0.013217758749545581 9.379076386816121E-4 0.013217758749545581
6.074869516406457E7 9.478954514873533E-4 0.013412927967985976 0.9990521045485127 -0.013412927967985976 0.9990521045485127 -0.013412927967985976 9.478954514873533E-4 0.013412927967985976
6.166547824839868E7 9.580655819395352E-4 0.013610968833573866 0.9990419344180606 -0.013610968833573862 0.9990419344180606 -0.013610968833573862 9.580655819395352E-4 0.013610968833573866
6.2596096876384385E7 9.684212479360895E-4 0.013811924915231427 0.9990315787520638 -0.013811924915231427 0.9990315787520638 -0.013811924915231427 9.684212479360895E-4 0.013811924915231427
6.354075984579668E7 9.789658004096858E-4 0.014015840508621683 0.9990210341995902 -0.014015840508621683 0.9990210341995902 -0.014015840508621683 9.789658004096858E-4 0.014015840508621683
6.449967910546205E7 9.897027313872468E-4 0.014222760646723735 0.9990102972686128 -0.014222760646723735 0.9990102972686128 -0.014222760646723735 9.897027313872468E-4 0.014222760646723735
6.547306980281226E7 0.0010006356822565615 0.014432731110338758 0.9989993643177434 -0.014432731110338758 0.9989993643177434 -0.014432731110338758 0.0010006356822565615 0.014432731110338758
6.646115033215589E7 0.0010117684522313077 0.014645798438522943 0.9989882315477686 -0.014645798438522943 0.9989882315477686 -0.014645798438522943 0.0010117684522313077 0.014645798438522943
6.746414238367817E7 0.0010231050070055674 0.01486200993894458 0.9989768949929942 -0.01486200993894458 0.9989768949929942 -0.01486200993894458 0.0010231050070055674 0.01486200993894458
6.848227099318038E7 0.0010346494875887445 0.015081413698163577 0.9989653505124114 -0.015081413698163577 0.9989653505124114 -0.015081413698163577 0.0010346494875887445 0.015081413698163577
6.951576459256999E7 0.0010464062193117458 0.015304058591832563 0.9989535937806882 -0.015304058591832563 0.9989535937806882 -0.015304058591832563 0.0010464062193117458 0.015304058591832563
7.056485506111258E7 0.0010583797209952714 0.015529994294819745 0.9989416202790047 -0.015529994294819745 0.9989416202790047 -0.015529994294819745 0.0010583797209952714 0.015529994294819745
7.162977777745734E7 0.0010705747142712237 0.015759271291254803 0.9989294252857288 -0.015759271291254803 0.9989294252857288 -0.015759271291254803 0.0010705747142712237 0.015759271291254803
7.271077167244768E7 0.0010829961330483977 0.015991940884499983 0.9989170038669516 -0.015991940884499983 0.9989170038669516 -0.015991940884499983 0.0010829961330483977 0.015991940884499983
7.380807928272885E7 0.0010956491331139547 0.016228055207049574 0.998904350866886 -0.016228055207049577 0.998904350866886 -0.016228055207049577 0.0010956491331139547 0.016228055207049574
7.492194680516452E7 0.0011085391018625494 0.016467667230362075 0.9988914608981374 -0.01646766723036207 0.9988914608981374 -0.01646766723036207 0.0011085391018625494 0.016467667230362075
7.60526241520746E7 0.0011216716681454499 0.016710830774629894 0.9988783283318544 -0.016710830774629894 0.9988783283318544 -0.016710830774629894 0.0011216716681454499 0.016710830774629894
7.720036500730675E7 0.0011350527122325797 0.016957600518492984 0.9988649472877675 -0.01695760051849298 0.9988649472877675 -0.01695760051849298 0.0011350527122325797 0.016957600518492984
7.836542688315398E7 0.0011486883758810012 0.017208032008702773 0.9988513116241189 -0.01720803200870277 0.9988513116241189 -0.01720803200870277 0.0011486883758810012 0.017208032008702773
7.954807117813127E7 0.001162585072504141 0.017462181669744597 0.9988374149274961 -0.017462181669744597 0.9988374149274961 -0.017462181669744597 0.001162585072504141 0.017462181669744597
8.074856323562416E7 0.0011767494974367686 0.017720106813426485 0.9988232505025633 -0.017720106813426485 0.9988232505025633 -0.017720106813426485 0.0011767494974367686 0.017720106813426485
8.196717240342227E7 0.0011911886382916606 0.01798186564844382 0.9988088113617082 -0.01798186564844382 0.9988088113617082 -0.01798186564844382 0.0011911886382916606 0.01798186564844382
8.320417209415154E7 0.0012059097854047406 0.018247517289929297 0.9987940902145953 -0.018247517289929297 0.9987940902145953 -0.018247517289929297 0.0012059097854047406 0.018247517289929297
8.445983984661816E7 0.0012209205423664622 0.01851712176899838 0.9987790794576336 -0.018517121768998383 0.9987790794576336 -0.018517121768998383 0.0012209205423664622 0.01851712176899838
8.573445738807854E7 0.0012362288366382056 0.01879074004230109 0.9987637711633617 -0.01879074004230109 0.9987637711633617 -0.01879074004230109 0.0012362288366382056 0.01879074004230109
8.702831069744885E7 0.0012518429302534966 0.019068434001590983 0.9987481570697466 -0.019068434001590983 0.9987481570697466 -0.019068434001590983 0.0012518429302534966 0.019068434001590983
8.834169006946853E7 0.0012677714306049003 0.019350266483322585 0.9987322285693953 -0.019350266483322585 0.9987322285693953 -0.019350266483322585 0.0012677714306049003 0.019350266483322585
8.96748901798321E7 0.0012840233013185734 0.019636301278289067 0.9987159766986814 -0.019636301278289067 0.9987159766986814 -0.019636301278289067 0.0012840233013185734 0.019636301278289067
9.1028210151304E7 0.0013006078732195115 0.019926603141311505 0.9986993921267805 -0.019926603141311505 0.9986993921267805 -0.019926603141311505 0.0013006078732195115 0.019926603141311505
9.240195362083109E7 0.0013175348553916626 0.02022123780099152 0.9986824651446083 -0.020221237800991516 0.9986824651446083 -0.020221237800991516 0.0013175348553916626 0.02022123780099152
9.379642880766791E7 0.0013348143463381694 0.020520271969538897 0.9986651856536617 -0.020520271969538897 0.9986651856536617 -0.020520271969538897 0.0013348143463381694 0.020520271969538897
9.521194858253023E7 0.0013524568452481127 0.02082377335268575 0.9986475431547519 -0.020823773352685745 0.9986475431547519 -0.020823773352685745 0.0013524568452481127 0.02082377335268575
9.664883053779216E7 0.0013704732633771882 0.021131810659698387 0.9986295267366229 -0.021131810659698387 0.9986295267366229 -0.021131810659698387 0.0013704732633771882 0.021131810659698387
9.810739705874248E7 0.0013888749355508224 0.02144445361349798 0.9986111250644493 -0.02144445361349798 0.9986111250644493 -0.02144445361349798 0.0013888749355508224 0.02144445361349798
9.958797539591652E7 0.0014076736317992645 0.021761772960900653 0.9985923263682007 -0.021761772960900653 0.9985923263682007 -0.021761772960900653 0.0014076736317992645 0.021761772960900653
1.0109089773851961E8 0.0014268815691351876 0.022083840482987217 0.998573118430865 -0.022083840482987217 0.998573118430865 -0.022083840482987217 0.0014268815691351876 0.022083840482987217
1.0261650128895843E8 0.0014465114234852971 0.022410729005612345 0.9985534885765146 -0.022410729005612345 0.9985534885765146 -0.022410729005612345 0.0014465114234852971 0.022410729005612345
1.0416512833849736E8 0.0014665763417883676 0.02274251241006232 0.9985334236582116 -0.022742512410062324 0.9985334236582116 -0.022742512410062324 0.0014665763417883676 0.02274251241006232
1.0573712634405641E8 0.0014870899542730048 0.02307926564387001 0.9985129100457271 -0.02307926564387001 0.9985129100457271 -0.02307926564387001 0.0014870899542730048 0.02307926564387001
1.0733284800616828E8 0.0015080663869292666 0.02342106473179502 0.9984919336130705 -0.02342106473179502 0.9984919336130705 -0.02342106473179502 0.0015080663869292666 0.02342106473179502
1.0895265134811176E8 0.0015295202741890564 0.023767986786976343 0.9984704797258108 -0.023767986786976347 0.9984704797258108 -0.023767986786976347 0.0015295202741890564 0.023767986786976343
1.1059689979623953E8 0.001551466771830919 0.024120110022263996 0.9984485332281688 -0.024120110022264 0.9984485332281688 -0.024120110022264 0.001551466771830919 0.024120110022263996
1.1226596226151802E8 0.0015739215701255824 0.02447751376173551 0.9984260784298743 -0.024477513761735507 0.9984260784298743 -0.024477513761735507 0.0015739215701255824 0.02447751376173551
1.1396021322229806E8 0.0015969009072391701 0.024840278452402234 0.9984030990927606 -0.024840278452402234 0.9984030990927606 -0.024840278452402234 0.0015969009072391701 0.024840278452402234
1.1568003280833441E8 0.0016204215829116176 0.025208485676109733 0.9983795784170882 -0.025208485676109733 0.9983795784170882 -0.025208485676109733 0.0016204215829116176 0.025208485676109733
1.1742580688607343E8 0.0016445009724283361 0.02558221816163567 0.9983554990275716 -0.02558221816163567 0.9983554990275716 -0.02558221816163567 0.0016445009724283361 0.02558221816163567
1.1919792714522783E8 0.0016691570409036287 0.025961559796987693 0.9983308429590965 -0.025961559796987693 0.9983308429590965 -0.025961559796987693 0.0016691570409036287 0.025961559796987693
1.2099679118665792E8 0.001694408357894788 0.02634659564190307 0.9983055916421053 -0.02634659564190307 0.9983055916421053 -0.02634659564190307 0.001694408357894788 0.02634659564190307
1.2282280261157903E8 0.0017202741123661987 0.026737411940550997 0.9982797258876338 -0.026737411940551 0.9982797258876338 -0.026737411940551 0.0017202741123661987 0.026737411940550997
1.2467637111211549E8 0.001746774128023062 0.027134096134437714 0.998253225871977 -0.027134096134437714 0.998253225871977 -0.027134096134437714 0.001746774128023062 0.027134096134437714
1.265579125632208E8 0.0017739288790346453 0.027536736875513283 0.9982260711209654 -0.027536736875513283 0.9982260711209654 -0.027536736875513283 0.0017739288790346453 0.027536736875513283
1.284678491159853E8 0.001801759506167258 0.027945424039479014 0.9981982404938328 -0.027945424039479007 0.9981982404938328 -0.027945424039479007 0.001801759506167258 0.027945424039479014
1.3040660929235186E8 0.0018302878333472552 0.02836024873929243 0.9981697121666526 -0.02836024873929243 0.9981697121666526 -0.02836024873929243 0.0018302878333472552 0.02836024873929243
1.3237462808126101E8 0.001859536384674662 0.028781303338867196 0.9981404636153253 -0.02878130333886719 0.9981404636153253 -0.02878130333886719 0.001859536384674662 0.028781303338867196
1.3437234703624701E8 0.0018895284019080352 0.029208681466963315 0.998110471598092 -0.029208681466963315 0.998110471598092 -0.029208681466963315 0.0018895284019080352 0.029208681466963315
1.364002143745067E8 0.0019202878624413802 0.029642478031263415 0.9980797121375586 -0.029642478031263415 0.9980797121375586 -0.029642478031263415 0.0019202878624413802 0.029642478031263415
1.3845868507746372E8 0.001951839497793974 0.03008278923262923 0.998048160502206 -0.03008278923262923 0.998048160502206 -0.03008278923262923 0.001951839497793974 0.03008278923262923
1.405482209928499E8 0.0019842088126340073 0.030529712579531857 0.9980157911873662 -0.030529712579531864 0.9980157911873662 -0.030529712579531864 0.0019842088126340073 0.030529712579531857
1.426692909383278E8 0.0020174221043570365 0.03098334690264926 0.997982577895643 -0.03098334690264926 0.997982577895643 -0.03098334690264926 0.0020174221043570365 0.03098334690264926
1.4482237080667645E8 0.0020515064832402246 0.03144379236962276 0.9979484935167597 -0.03144379236962277 0.9979484935167597 -0.03144379236962277 0.0020515064832402246 0.03144379236962276
1.4700794367256513E8 0.0020864898931933894 0.03191115049996453 0.9979135101068066 -0.03191115049996453 0.9979135101068066 -0.03191115049996453 0.0020864898931933894 0.03191115049996453
1.492264999009378E8 0.0021224011331278767 0.032385524180106776 0.9978775988668722 -0.03238552418010678 0.9978775988668722 -0.03238552418010678 0.0021224011331278767 0.032385524180106776
1.5147853725703382E8 0.0021592698789642643 0.032867017678583126 0.9978407301210356 -0.032867017678583126 0.9978407301210356 -0.032867017678583126 0.0021592698789642643 0.032867017678583126
1.5376456101806876E8 0.0021971267062999315 0.03335573666133184 0.9978028732937001 -0.03335573666133185 0.9978028732937001 -0.03335573666133185 0.0021971267062999315 0.03335573666133184
1.5608508408660066E8 0.002236003113757447 0.0338517882071098 0.9977639968862426 -0.0338517882071098 0.9977639968862426 -0.0338517882071098 0.002236003113757447 0.0338517882071098
1.5844062710560706E8 0.0022759315470348316 0.03435528082300597 0.9977240684529651 -0.03435528082300597 0.9977240684529651 -0.03435528082300597 0.0022759315470348316 0.03435528082300597
1.6083171857529896E8 0.0023169454236786394 0.03486632446004216 0.9976830545763214 -0.03486632446004216 0.9976830545763214 -0.03486632446004216 0.0023169454236786394 0.03486632446004216
1.632588949716973E8 0.002359079158600879 0.035385030528848435 0.9976409208413992 -0.035385030528848435 0.9976409208413992 -0.035385030528848435 0.002359079158600879 0.035385030528848435
1.6572270086699936E8 0.0024023681903607625 0.03591151191540005 0.9975976318096391 -0.03591151191540004 0.9975976318096391 -0.03591151191540004 0.0024023681903607625 0.03591151191540005
1.6822368905176118E8 0.0024468490082323164 0.03644588299680208 0.9975531509917677 -0.036445882996802084 0.9975531509917677 -0.036445882996802084 0.0024468490082323164 0.03644588299680208
1.7076242065892437E8 0.0024925591800789046 0.03698825965710772 0.9975074408199212 -0.03698825965710772 0.9975074408199212 -0.03698825965710772 0.0024925591800789046 0.03698825965710772
1.7333946528971428E8 0.002539537381055723 0.037538759303155075 0.9974604626189442 -0.03753875930315507 0.9974604626189442 -0.03753875930315507 0.002539537381055723 0.037538759303155075
1.7595540114143828E8 0.002587823423161453 0.03809750088040756 0.9974121765768383 -0.03809750088040756 0.9974121765768383 -0.03809750088040756 0.002587823423161453 0.03809750088040756
1.786108151372127E8 0.002637458285660248 0.03866460488878195 0.9973625417143399 -0.03866460488878195 0.9973625417143399 -0.03866460488878195 0.002637458285660248 0.03866460488878195
1.8130630305764765E8 0.002688484146395362 0.03924019339844764 0.9973115158536047 -0.03924019339844764 0.9973115158536047 -0.03924019339844764 0.002688484146395362 0.03924019339844764
1.840424696745189E8 0.0027409444140157804 0.03982439006558038 0.9972590555859842 -0.039824390065580376 0.9972590555859842 -0.039824390065580376 0.0027409444140157804 0.03982439006558038
1.8681992888645732E8 0.0027948837611374033 0.04041732014805323 0.9972051162388627 -0.04041732014805323 0.9972051162388627 -0.04041732014805323 0.0027948837611374033 0.04041732014805323
1.8963930385668582E8 0.0028503481584603724 0.041019110521046745 0.9971496518415396 -0.041019110521046745 0.9971496518415396 -0.041019110521046745 0.0028503481584603724 0.041019110521046745
1.92501227152835E8 0.0029073849098643157 0.04162988969255981 0.9970926150901357 -0.04162988969255982 0.9970926150901357 -0.04162988969255982 0.0029073849098643157 0.04162988969255981
1.9540634088886917E8 0.0029660426885035297 0.042249787818802745 0.9970339573114967 -0.04224978781880275 0.9970339573114967 -0.04224978781880275 0.0029660426885035297 0.042249787818802745
1.983552968691535E8 0.0030263715739241347 0.042878936719452504 0.9969736284260758 -0.042878936719452504 0.9969736284260758 -0.042878936719452504 0.0030263715739241347 0.042878936719452504
2.0134875673469606E8 0.003088423090225634 0.04351746989275054 0.9969115769097743 -0.04351746989275054 0.9969115769097743 -0.04351746989275054 0.003088423090225634 0.04351746989275054
2.0438739211159652E8 0.00315225024528938 0.04416552253042238 0.9968477497547107 -0.044165522530422385 0.9968477497547107 -0.044165522530422385 0.00315225024528938 0.04416552253042238
2.074718847617352E8 0.0032179075710967783 0.044823231532397735 0.9967820924289033 -0.044823231532397735 0.9967820924289033 -0.044823231532397735 0.0032179075710967783 0.044823231532397735
2.106029267357361E8 0.003285451165160316 0.045490735521309694 0.9967145488348398 -0.045490735521309694 0.9967145488348398 -0.045490735521309694 0.003285451165160316 0.045490735521309694
2.1378122052823865E8 0.003354938733090726 0.046168174856750045 0.9966450612669091 -0.046168174856750045 0.9966450612669091 -0.046168174856750045 0.003354938733090726 0.046168174856750045
2.1700747923551247E8 0.003426429632324006 0.046855691649258395 0.9965735703676759 -0.04685569164925839 0.9965735703676759 -0.04685569164925839 0.003426429632324006 0.046855691649258395
2.2028242671545094E8 0.003499984917032216 0.04755342977402067 0.9965000150829678 -0.047553429774020675 0.9965000150829678 -0.047553429774020675 0.003499984917032216 0.04755342977402067
2.23606797749979E8 0.0035756673842424085 0.04826153488425304 0.9964243326157577 -0.04826153488425304 0.9964243326157577 -0.04826153488425304 0.0035756673842424085 0.04826153488425304
2.2698133820991236E8 0.0036535416211884203 0.04898015442424628 0.9963464583788115 -0.04898015442424629 0.9963464583788115 -0.04898015442424629 0.0036535416211884203 0.04898015442424628
2.3040680522230446E8 0.0037336740539205436 0.04970943764204438 0.9962663259460794 -0.049709437642044385 0.9962663259460794 -0.049709437642044385 0.0037336740539205436 0.04970943764204438
2.338839673403185E8 0.003816132997198612 0.050449535601730926 0.9961838670028011 -0.050449535601730926 0.9961838670028011 -0.050449535601730926 0.003816132997198612 0.050449535601730926
2.37413604715664E8 0.0039009887056944714 0.051200601195296395 0.9960990112943054 -0.051200601195296395 0.9960990112943054 -0.051200601195296395 0.0039009887056944714 0.051200601195296395
2.4099650927363476E8 0.003988313426530088 0.05196278915405702 0.9960116865734701 -0.05196278915405702 0.9960116865734701 -0.05196278915405702 0.003988313426530088 0.05196278915405702
