!Murata Part Number: LQG15HS3N6B02
!These Parameters are Measured in Series Mode Connection
!       o--[Z]--o
!Port1              Port2
!       o-------o
!
!Freq. Start=50[MHz] Stop=20[GHz], 401[Steps]
# Hz S RI R 50
!Freq.(Hz) S11(Real) S11(Imag) S21(Real) S21(Imag) S12(Real) S12(Imag) S22(Real) S22(Imag)
5.0E7 0.0018604547604554253 0.012400158756178725 0.9981395452395447 -0.012400158756178725 0.9981395452395447 -0.012400158756178725 0.0018604547604554253 0.012400158756178725
5.0754570186123446E7 0.001876292078197328 0.012578485958668117 0.9981237079218025 -0.012578485958668117 0.9981237079218025 -0.012578485958668117 0.001876292078197328 0.012578485958668117
5.152052789556263E7 0.0018923917532535522 0.01275934087390686 0.9981076082467464 -0.012759340873906863 0.9981076082467464 -0.012759340873906863 0.0018923917532535522 0.01275934087390686
5.229804498202928E7 0.0019087564049747737 0.012942759281821935 0.9980912435950252 -0.012942759281821935 0.9980912435950252 -0.012942759281821935 0.0019087564049747737 0.012942759281821935
5.308729589274893E7 0.0019253886418011694 0.01312877759242678 0.9980746113581986 -0.01312877759242678 0.9980746113581986 -0.01312877759242678 0.0019253886418011694 0.01312877759242678
5.388845770760058E7 0.0019422910667905697 0.01331743286169118 0.9980577089332094 -0.01331743286169118 0.9980577089332094 -0.01331743286169118 0.0019422910667905697 0.01331743286169118
5.470171017884717E7 0.001959466283715854 0.013508762807501256 0.9980405337162842 -0.013508762807501256 0.9980405337162842 -0.013508762807501256 0.001959466283715854 0.013508762807501256
5.5527235771465644E7 0.001976916903739645 0.013702805825680849 0.9980230830962604 -0.013702805825680849 0.9980230830962604 -0.013702805825680849 0.001976916903739645 0.013702805825680849
5.6365219704085544E7 0.001994645552672443 0.01389960100604506 0.9980053544473277 -0.013899601006045061 0.9980053544473277 -0.013899601006045061 0.001994645552672443 0.01389960100604506
5.721584999054556E7 0.002012654878818232 0.014099188148455769 0.9979873451211818 -0.014099188148455769 0.9979873451211818 -0.014099188148455769 0.002012654878818232 0.014099188148455769
5.807931748207712E7 0.0020309475614094965 0.014301607778848587 0.9979690524385907 -0.01430160777884859 0.9979690524385907 -0.01430160777884859 0.0020309475614094965 0.014301607778848587
5.8955815910124585E7 0.0020495263196313915 0.014506901165200462 0.9979504736803687 -0.014506901165200462 0.9979504736803687 -0.014506901165200462 0.0020495263196313915 0.014506901165200462
5.984554192981184E7 0.002068393922232508 0.0147151103334068 0.9979316060777675 -0.014715110333406804 0.9979316060777675 -0.014715110333406804 0.002068393922232508 0.0147151103334068
6.074869516406457E7 0.0020875531977174334 0.014926278083037215 0.9979124468022825 -0.014926278083037215 0.9979124468022825 -0.014926278083037215 0.0020875531977174334 0.014926278083037215
6.166547824839868E7 0.0021070070451139553 0.015140448002939086 0.9978929929548861 -0.015140448002939089 0.9978929929548861 -0.015140448002939089 0.0021070070451139553 0.015140448002939086
6.2596096876384385E7 0.0021267584453054833 0.0153576644866588 0.9978732415546945 -0.0153576644866588 0.9978732415546945 -0.0153576644866588 0.0021267584453054833 0.0153576644866588
6.354075984579668E7 0.0021468104729169177 0.01557797274765091 0.9978531895270831 -0.015577972747650912 0.9978531895270831 -0.015577972747650912 0.0021468104729169177 0.01557797274765091
6.449967910546205E7 0.0021671663087399645 0.01580141883424644 0.99783283369126 -0.015801418834246437 0.99783283369126 -0.015801418834246437 0.0021671663087399645 0.01580141883424644
6.547306980281226E7 0.0021878292526816973 0.016028049644352695 0.9978121707473181 -0.016028049644352695 0.9978121707473181 -0.016028049644352695 0.0021878292526816973 0.016028049644352695
6.646115033215589E7 0.0022088027372180064 0.01625791293985807 0.997791197262782 -0.016257912939858066 0.997791197262782 -0.016257912939858066 0.0022088027372180064 0.01625791293985807
6.746414238367817E7 0.002230090341331562 0.01649105736071667 0.9977699096586685 -0.01649105736071667 0.9977699096586685 -0.01649105736071667 0.002230090341331562 0.01649105736071667
6.848227099318038E7 0.0022516958049120213 0.01672753243868963 0.9977483041950879 -0.01672753243868963 0.9977483041950879 -0.01672753243868963 0.0022516958049120213 0.01672753243868963
6.951576459256999E7 0.0022736230435943397 0.016967388610721206 0.9977263769564056 -0.016967388610721206 0.9977263769564056 -0.016967388610721206 0.0022736230435943397 0.016967388610721206
7.056485506111258E7 0.0022958761640095027 0.017210677231930177 0.9977041238359903 -0.017210677231930174 0.9977041238359903 -0.017210677231930174 0.0022958761640095027 0.017210677231930177
7.162977777745734E7 0.002318459479420462 0.01745745058819901 0.9976815405205794 -0.01745745058819901 0.9976815405205794 -0.01745745058819901 0.002318459479420462 0.01745745058819901
7.271077167244768E7 0.002341377525714751 0.017707761908345394 0.9976586224742852 -0.017707761908345394 0.9976586224742852 -0.017707761908345394 0.002341377525714751 0.017707761908345394
7.380807928272885E7 0.0023646350777241924 0.017961665375863304 0.9976353649222759 -0.0179616653758633 0.9976353649222759 -0.0179616653758633 0.0023646350777241924 0.017961665375863304
7.492194680516452E7 0.002388237165841168 0.01821921614022307 0.9976117628341589 -0.018219216140223073 0.9976117628341589 -0.018219216140223073 0.002388237165841168 0.01821921614022307
7.60526241520746E7 0.0024121890929002434 0.018480470327722598 0.9975878109070999 -0.018480470327722598 0.9975878109070999 -0.018480470327722598 0.0024121890929002434 0.018480470327722598
7.720036500730675E7 0.002436496451293454 0.018745485051884194 0.9975635035487064 -0.01874548505188419 0.9975635035487064 -0.01874548505188419 0.002436496451293454 0.018745485051884194
7.836542688315398E7 0.002461165140287361 0.019014318423394724 0.9975388348597126 -0.019014318423394724 0.9975388348597126 -0.019014318423394724 0.002461165140287361 0.019014318423394724
7.954807117813127E7 0.002486201383509833 0.01928702955958852 0.9975137986164903 -0.01928702955958852 0.9975137986164903 -0.01928702955958852 0.002486201383509833 0.01928702955958852
8.074856323562416E7 0.0025116117465748817 0.019563678593476096 0.997488388253425 -0.019563678593476096 0.997488388253425 -0.019563678593476096 0.0025116117465748817 0.019563678593476096
8.196717240342227E7 0.0025374031548141738 0.019844326682323683 0.9974625968451858 -0.019844326682323683 0.9974625968451858 -0.019844326682323683 0.0025374031548141738 0.019844326682323683
8.320417209415154E7 0.0025635829110845576 0.020129036015791562 0.9974364170889154 -0.020129036015791562 0.9974364170889154 -0.020129036015791562 0.0025635829110845576 0.020129036015791562
8.445983984661816E7 0.002590158713621745 0.02041786982364127 0.9974098412863783 -0.020417869823641275 0.9974098412863783 -0.020417869823641275 0.002590158713621745 0.02041786982364127
8.573445738807854E7 0.002617138673911459 0.020710892383024797 0.9973828613260883 -0.020710892383024794 0.9973828613260883 -0.020710892383024794 0.002617138673911459 0.020710892383024797
8.702831069744885E7 0.002644531334550499 0.021008169025370588 0.9973554686654496 -0.021008169025370588 0.9973554686654496 -0.021008169025370588 0.002644531334550499 0.021008169025370588
8.834169006946853E7 0.002672345687071716 0.021309766142883727 0.9973276543129282 -0.021309766142883727 0.9973276543129282 -0.021309766142883727 0.002672345687071716 0.021309766142883727
8.96748901798321E7 0.0027005911897084686 0.021615751194679747 0.9972994088102913 -0.021615751194679747 0.9972994088102913 -0.021615751194679747 0.0027005911897084686 0.021615751194679747
9.1028210151304E7 0.0027292777850758975 0.021926192712573244 0.9972707222149242 -0.02192619271257324 0.9972707222149242 -0.02192619271257324 0.0027292777850758975 0.021926192712573244
9.240195362083109E7 0.0027584159177483003 0.02224116030654434 0.9972415840822517 -0.02224116030654434 0.9972415840822517 -0.02224116030654434 0.0027584159177483003 0.02224116030654434
9.379642880766791E7 0.0027880165517138867 0.022560724669907738 0.9972119834482861 -0.022560724669907738 0.9972119834482861 -0.022560724669907738 0.0027880165517138867 0.022560724669907738
9.521194858253023E7 0.002818091187690335 0.02288495758421016 0.9971819088123097 -0.022884957584210157 0.9971819088123097 -0.022884957584210157 0.002818091187690335 0.02288495758421016
9.664883053779216E7 0.0028486518802868285 0.02321393192388371 0.9971513481197132 -0.02321393192388371 0.9971513481197132 -0.02321393192388371 0.0028486518802868285 0.02321393192388371
9.810739705874248E7 0.00287971125500045 0.023547721660683127 0.9971202887449997 -0.023547721660683127 0.9971202887449997 -0.023547721660683127 0.00287971125500045 0.023547721660683127
9.958797539591652E7 0.0029112825250372583 0.02388640186793626 0.9970887174749627 -0.02388640186793626 0.9970887174749627 -0.02388640186793626 0.0029112825250372583 0.02388640186793626
1.0109089773851961E8 0.002943379507950606 0.024230048724637406 0.9970566204920496 -0.02423004872463741 0.9970566204920496 -0.02423004872463741 0.002943379507950606 0.024230048724637406
1.0261650128895843E8 0.0029760166420917185 0.024578739519413702 0.9970239833579082 -0.024578739519413702 0.9970239833579082 -0.024578739519413702 0.0029760166420917185 0.024578739519413702
1.0416512833849736E8 0.0030092090028698767 0.024932552654395188 0.9969907909971301 -0.024932552654395184 0.9969907909971301 -0.024932552654395184 0.0030092090028698767 0.024932552654395188
1.0573712634405641E8 0.0030429723188218176 0.02529156764901884 0.9969570276811783 -0.025291567649018836 0.9969570276811783 -0.025291567649018836 0.0030429723188218176 0.02529156764901884
1.0733284800616828E8 0.0030773229874924007 0.025655865143797373 0.9969226770125076 -0.025655865143797373 0.9969226770125076 -0.025655865143797373 0.0030773229874924007 0.025655865143797373
1.0895265134811176E8 0.0031122780911306464 0.026025526904082896 0.9968877219088694 -0.026025526904082896 0.9968877219088694 -0.026025526904082896 0.0031122780911306464 0.026025526904082896
1.1059689979623953E8 0.0031478554122075296 0.026400635823855125 0.9968521445877923 -0.026400635823855125 0.9968521445877923 -0.026400635823855125 0.0031478554122075296 0.026400635823855125
1.1226596226151802E8 0.0031840734487639864 0.026781275929563985 0.9968159265512361 -0.026781275929563985 0.9968159265512361 -0.026781275929563985 0.0031840734487639864 0.026781275929563985
1.1396021322229806E8 0.003220951429599478 0.027167532384054588 0.9967790485704006 -0.02716753238405458 0.9967790485704006 -0.02716753238405458 0.003220951429599478 0.027167532384054588
1.1568003280833441E8 0.003258509329313487 0.027559491490603126 0.9967414906706865 -0.02755949149060312 0.9967414906706865 -0.02755949149060312 0.003258509329313487 0.027559491490603126
1.1742580688607343E8 0.003296767883213986 0.027957240697090338 0.9967032321167861 -0.027957240697090338 0.9967032321167861 -0.027957240697090338 0.003296767883213986 0.027957240697090338
1.1919792714522783E8 0.003335748602108603 0.02836086860033873 0.9966642513978914 -0.02836086860033873 0.9966642513978914 -0.02836086860033873 0.003335748602108603 0.02836086860033873
1.2099679118665792E8 0.003375473786995841 0.02877046495063875 0.9966245262130041 -0.028770464950638758 0.9966245262130041 -0.028770464950638758 0.003375473786995841 0.02877046495063875
1.2282280261157903E8 0.0034159665436749643 0.029186120656487676 0.996584033456325 -0.029186120656487676 0.996584033456325 -0.029186120656487676 0.0034159665436749643 0.029186120656487676
1.2467637111211549E8 0.003457250797294691 0.02960792778956443 0.9965427492027054 -0.029607927789564434 0.9965427492027054 -0.029607927789564434 0.003457250797294691 0.02960792778956443
1.265579125632208E8 0.003499351306861807 0.03003597958996181 0.996500648693138 -0.03003597958996181 0.996500648693138 -0.03003597958996181 0.003499351306861807 0.03003597958996181
1.284678491159853E8 0.0035422936797320534 0.03047037047169685 0.9964577063202679 -0.03047037047169685 0.9964577063202679 -0.03047037047169685 0.0035422936797320534 0.03047037047169685
1.3040660929235186E8 0.003586104386106528 0.030911196028518943 0.9964138956138934 -0.030911196028518936 0.9964138956138934 -0.030911196028518936 0.003586104386106528 0.030911196028518943
1.3237462808126101E8 0.003630810773557718 0.0313585530400339 0.9963691892264424 -0.0313585530400339 0.9963691892264424 -0.0313585530400339 0.003630810773557718 0.0313585530400339
1.3437234703624701E8 0.0036764410816100303 0.031812539478161234 0.99632355891839 -0.031812539478161234 0.99632355891839 -0.031812539478161234 0.0036764410816100303 0.031812539478161234
1.364002143745067E8 0.0037230244564004132 0.03227325451394113 0.9962769755435997 -0.03227325451394113 0.9962769755435997 -0.03227325451394113 0.0037230244564004132 0.03227325451394113
1.3845868507746372E8 0.0037705909654452067 0.03274079852470603 0.9962294090345547 -0.03274079852470603 0.9962294090345547 -0.03274079852470603 0.0037705909654452067 0.03274079852470603
1.405482209928499E8 0.0038191716125398835 0.03321527310163135 0.99618082838746 -0.03321527310163135 0.99618082838746 -0.03321527310163135 0.0038191716125398835 0.03321527310163135
1.426692909383278E8 0.0038687983528188706 0.033696781057678614 0.9961312016471812 -0.033696781057678614 0.9961312016471812 -0.033696781057678614 0.0038687983528188706 0.033696781057678614
1.4482237080667645E8 0.003919504108002991 0.03418542643594359 0.9960804958919971 -0.03418542643594359 0.9960804958919971 -0.03418542643594359 0.003919504108002991 0.03418542643594359
1.4700794367256513E8 0.003971322781862541 0.034681314518421616 0.9960286772181376 -0.034681314518421616 0.9960286772181376 -0.034681314518421616 0.003971322781862541 0.034681314518421616
1.492264999009378E8 0.0040242892759242786 0.03518455183520089 0.9959757107240756 -0.03518455183520089 0.9959757107240756 -0.03518455183520089 0.0040242892759242786 0.03518455183520089
1.5147853725703382E8 0.004078439505451072 0.03569524617409481 0.9959215604945488 -0.03569524617409481 0.9959215604945488 -0.03569524617409481 0.004078439505451072 0.03569524617409481
1.5376456101806876E8 0.004133810415723272 0.036213506590723386 0.9958661895842766 -0.03621350659072338 0.9958661895842766 -0.03621350659072338 0.004133810415723272 0.036213506590723386
1.5608508408660066E8 0.004190439998651263 0.036739443419053754 0.9958095600013487 -0.03673944341905375 0.9958095600013487 -0.03673944341905375 0.004190439998651263 0.036739443419053754
1.5844062710560706E8 0.004248367309749048 0.03727316828240885 0.9957516326902509 -0.03727316828240885 0.9957516326902509 -0.03727316828240885 0.004248367309749048 0.03727316828240885
1.6083171857529896E8 0.0043076324854992975 0.0378147941049542 0.9956923675145007 -0.0378147941049542 0.9956923675145007 -0.0378147941049542 0.0043076324854992975 0.0378147941049542
1.632588949716973E8 0.004368276761140697 0.03836443512367149 0.9956317232388592 -0.03836443512367149 0.9956317232388592 -0.03836443512367149 0.004368276761140697 0.03836443512367149
1.6572270086699936E8 0.004430342488909073 0.03892220690082814 0.9955696575110908 -0.03892220690082814 0.9955696575110908 -0.03892220690082814 0.004430342488909073 0.03892220690082814
1.6822368905176118E8 0.004493873156764533 0.0394882263369519 0.9955061268432354 -0.03948822633695189 0.9955061268432354 -0.03948822633695189 0.004493873156764533 0.0394882263369519
1.7076242065892437E8 0.004558913407637539 0.04006261168431961 0.9954410865923627 -0.04006261168431962 0.9954410865923627 -0.04006261168431962 0.004558913407637539 0.04006261168431961
1.7333946528971428E8 0.004625509059227829 0.040645482560969365 0.9953744909407721 -0.040645482560969365 0.9953744909407721 -0.040645482560969365 0.004625509059227829 0.040645482560969365
1.7595540114143828E8 0.004693707124390996 0.04123695996524495 0.9953062928756092 -0.04123695996524495 0.9953062928756092 -0.04123695996524495 0.004693707124390996 0.04123695996524495
1.786108151372127E8 0.00476355583214883 0.04183716629088254 0.9952364441678512 -0.04183716629088254 0.9952364441678512 -0.04183716629088254 0.00476355583214883 0.04183716629088254
1.8130630305764765E8 0.004835104649360695 0.042446225342648934 0.9951648953506395 -0.042446225342648934 0.9951648953506395 -0.042446225342648934 0.004835104649360695 0.042446225342648934
1.840424696745189E8 0.004908404303094624 0.04306426235254074 0.9950915956969054 -0.04306426235254074 0.9950915956969054 -0.04306426235254074 0.004908404303094624 0.04306426235254074
1.8681992888645732E8 0.004983506803738578 0.043691403996555085 0.9950164931962615 -0.043691403996555085 0.9950164931962615 -0.043691403996555085 0.004983506803738578 0.043691403996555085
1.8963930385668582E8 0.005060465468893764 0.04432777841204091 0.9949395345311063 -0.04432777841204091 0.9949395345311063 -0.04432777841204091 0.005060465468893764 0.04432777841204091
1.92501227152835E8 0.005139334948094085 0.044973515215641385 0.9948606650519057 -0.04497351521564138 0.9948606650519057 -0.04497351521564138 0.005139334948094085 0.044973515215641385
1.9540634088886917E8 0.005220171248397698 0.04562874552183726 0.9947798287516022 -0.04562874552183726 0.9947798287516022 -0.04562874552183726 0.005220171248397698 0.04562874552183726
1.983552968691535E8 0.005303031760898936 0.046293601962100694 0.994696968239101 -0.046293601962100694 0.994696968239101 -0.046293601962100694 0.005303031760898936 0.046293601962100694
2.0134875673469606E8 0.005387975288211257 0.046968218704669544 0.9946120247117888 -0.046968218704669544 0.9946120247117888 -0.046968218704669544 0.005387975288211257 0.046968218704669544
2.0438739211159652E8 0.005475062072974427 0.04765273147495089 0.9945249379270256 -0.04765273147495089 0.9945249379270256 -0.04765273147495089 0.005475062072974427 0.04765273147495089
2.074718847617352E8 0.005564353827441979 0.048347277576563166 0.9944356461725582 -0.048347277576563166 0.9944356461725582 -0.048347277576563166 0.005564353827441979 0.048347277576563166
2.106029267357361E8 0.005655913764207666 0.04905199591302432 0.9943440862357926 -0.04905199591302432 0.9943440862357926 -0.04905199591302432 0.005655913764207666 0.04905199591302432
2.1378122052823865E8 0.005749806628132933 0.049767027010093765 0.9942501933718668 -0.04976702701009377 0.9942501933718668 -0.04976702701009377 0.005749806628132933 0.049767027010093765
2.1700747923551247E8 0.005846098729540443 0.05049251303877433 0.9941539012704596 -0.05049251303877433 0.9941539012704596 -0.05049251303877433 0.005846098729540443 0.05049251303877433
2.2028242671545094E8 0.005944857978742106 0.051228597838978956 0.9940551420212579 -0.051228597838978956 0.9940551420212579 -0.051228597838978956 0.005944857978742106 0.051228597838978956
2.23606797749979E8 0.006046153921973404 0.05197542694386571 0.9939538460780266 -0.05197542694386571 0.9939538460780266 -0.05197542694386571 0.006046153921973404 0.05197542694386571
2.2698133820991236E8 0.006150057778809616 0.052733147604843426 0.9938499422211905 -0.05273314760484341 0.9938499422211905 -0.05273314760484341 0.006150057778809616 0.052733147604843426
2.3040680522230446E8 0.006256642481142843 0.05350190881724668 0.9937433575188572 -0.05350190881724668 0.9937433575188572 -0.05350190881724668 0.006256642481142843 0.05350190881724668
2.338839673403185E8 0.0063659827138028 0.054281861346678555 0.993634017286197 -0.054281861346678555 0.993634017286197 -0.054281861346678555 0.0063659827138028 0.054281861346678555
2.37413604715664E8 0.006478154956907948 0.055073157756015366 0.993521845043092 -0.055073157756015366 0.993521845043092 -0.055073157756015366 0.006478154956907948 0.055073157756015366
2.4099650927363476E8 0.0065932375300374055 0.05587595243306527 0.9934067624699624 -0.05587595243306526 0.9934067624699624 -0.05587595243306526 0.0065932375300374055 0.05587595243306527
