!Murata Part Number: LQG15HS1N6B02
!These Parameters are Measured in Series Mode Connection
!       o--[Z]--o
!Port1              Port2
!       o-------o
!
!Freq. Start=50[MHz] Stop=20[GHz], 401[Steps]
# Hz S RI R 50
!Freq.(Hz) S11(Real) S11(Imag) S21(Real) S21(Imag) S12(Real) S12(Imag) S22(Real) S22(Imag)
5.0E7 6.85261298305344E-4 0.00591431534083805 0.9993147387016946 -0.00591431534083805 0.9993147387016946 -0.00591431534083805 6.85261298305344E-4 0.00591431534083805
5.0754570186123446E7 6.918140137354353E-4 0.005997881163208681 0.9993081859862644 -0.005997881163208681 0.9993081859862644 -0.005997881163208681 6.918140137354353E-4 0.005997881163208681
5.152052789556263E7 6.983989238086407E-4 0.006082641419452354 0.9993016010761915 -0.0060826414194523545 0.9993016010761915 -0.0060826414194523545 6.983989238086407E-4 0.006082641419452354
5.229804498202928E7 7.050153717338656E-4 0.006168615659515132 0.9992949846282662 -0.006168615659515132 0.9992949846282662 -0.006168615659515132 7.050153717338656E-4 0.006168615659515132
5.308729589274893E7 7.116627726118983E-4 0.0062558237883082205 0.9992883372273881 -0.0062558237883082205 0.9992883372273881 -0.0062558237883082205 7.116627726118983E-4 0.0062558237883082205
5.388845770760058E7 7.183406180732528E-4 0.006344286067838159 0.9992816593819268 -0.006344286067838159 0.9992816593819268 -0.006344286067838159 7.183406180732528E-4 0.006344286067838159
5.470171017884717E7 7.250484808212046E-4 0.006434023119199993 0.9992749515191789 -0.006434023119199993 0.9992749515191789 -0.006434023119199993 7.250484808212046E-4 0.006434023119199993
5.5527235771465644E7 7.317860190694197E-4 0.006525055924443307 0.9992682139809307 -0.006525055924443307 0.9992682139809307 -0.006525055924443307 7.317860190694197E-4 0.006525055924443307
5.6365219704085544E7 7.385529808644073E-4 0.006617405828321843 0.9992614470191357 -0.006617405828321842 0.9992614470191357 -0.006617405828321842 7.385529808644073E-4 0.006617405828321843
5.721584999054556E7 7.45349208283935E-4 0.006711094539938181 0.9992546507917159 -0.006711094539938183 0.9992546507917159 -0.006711094539938183 7.45349208283935E-4 0.006711094539938181
5.807931748207712E7 7.521746415034468E-4 0.006806144134295316 0.9992478253584965 -0.006806144134295318 0.9992478253584965 -0.006806144134295318 7.521746415034468E-4 0.006806144134295316
5.8955815910124585E7 7.590293227235216E-4 0.00690257705376768 0.9992409706772766 -0.00690257705376768 0.9992409706772766 -0.00690257705376768 7.590293227235216E-4 0.00690257705376768
5.984554192981184E7 7.65913399952356E-4 0.007000416109504349 0.9992340866000478 -0.007000416109504349 0.9992340866000478 -0.007000416109504349 7.65913399952356E-4 0.007000416109504349
6.074869516406457E7 7.728271306383202E-4 0.007099684482777678 0.9992271728693616 -0.007099684482777678 0.9992271728693616 -0.007099684482777678 7.728271306383202E-4 0.007099684482777678
6.166547824839868E7 7.797708851485943E-4 0.007200405726290672 0.9992202291148515 -0.007200405726290672 0.9992202291148515 -0.007200405726290672 7.797708851485943E-4 0.007200405726290672
6.2596096876384385E7 7.867451500909445E-4 0.007302603765456582 0.999213254849909 -0.007302603765456582 0.999213254849909 -0.007302603765456582 7.867451500909445E-4 0.007302603765456582
6.354075984579668E7 7.937505314767028E-4 0.00740630289966435 0.9992062494685233 -0.00740630289966435 0.9992062494685233 -0.00740630289966435 7.937505314767028E-4 0.00740630289966435
6.449967910546205E7 8.007877577239921E-4 0.007511527803543348 0.9991992122422759 -0.007511527803543348 0.9991992122422759 -0.007511527803543348 8.007877577239921E-4 0.007511527803543348
6.547306980281226E7 8.078576825012296E-4 0.007618303528240838 0.9991921423174988 -0.007618303528240838 0.9991921423174988 -0.007618303528240838 8.078576825012296E-4 0.007618303528240838
6.646115033215589E7 8.149612874118617E-4 0.007726655502725372 0.999185038712588 -0.007726655502725372 0.999185038712588 -0.007726655502725372 8.149612874118617E-4 0.007726655502725372
6.746414238367817E7 8.220996845222061E-4 0.007836609535129054 0.9991779003154778 -0.007836609535129054 0.9991779003154778 -0.007836609535129054 8.220996845222061E-4 0.007836609535129054
6.848227099318038E7 8.292741187351278E-4 0.007948191814141277 0.9991707258812648 -0.007948191814141277 0.9991707258812648 -0.007948191814141277 8.292741187351278E-4 0.007948191814141277
6.951576459256999E7 8.364859700130896E-4 0.008061428910466175 0.9991635140299868 -0.008061428910466177 0.9991635140299868 -0.008061428910466177 8.364859700130896E-4 0.008061428910466175
7.056485506111258E7 8.437367554548968E-4 0.00817634777835553 0.9991562632445453 -0.00817634777835553 0.9991562632445453 -0.00817634777835553 8.437367554548968E-4 0.00817634777835553
7.162977777745734E7 8.510281312311368E-4 0.0082929757572284 0.9991489718687689 -0.0082929757572284 0.9991489718687689 -0.0082929757572284 8.510281312311368E-4 0.0082929757572284
7.271077167244768E7 8.58361894384001E-4 0.008411340573388257 0.999141638105616 -0.008411340573388257 0.999141638105616 -0.008411340573388257 8.58361894384001E-4 0.008411340573388257
7.380807928272885E7 8.657399844977157E-4 0.008531470341847655 0.9991342600155023 -0.008531470341847654 0.9991342600155023 -0.008531470341847654 8.657399844977157E-4 0.008531470341847655
7.492194680516452E7 8.731644852463884E-4 0.008653393568270093 0.9991268355147535 -0.008653393568270093 0.9991268355147535 -0.008653393568270093 8.731644852463884E-4 0.008653393568270093
7.60526241520746E7 8.806376258264865E-4 0.008777139151037878 0.9991193623741736 -0.00877713915103788 0.9991193623741736 -0.00877713915103788 8.806376258264865E-4 0.008777139151037878
7.720036500730675E7 8.88161782281602E-4 0.008902736383454265 0.9991118382177185 -0.008902736383454263 0.9991118382177185 -0.008902736383454263 8.88161782281602E-4 0.008902736383454265
7.836542688315398E7 8.957394787274534E-4 0.00903021495608743 0.9991042605212723 -0.00903021495608743 0.9991042605212723 -0.00903021495608743 8.957394787274534E-4 0.00903021495608743
7.954807117813127E7 9.033733884853745E-4 0.009159604959263228 0.9990966266115147 -0.009159604959263228 0.9990966266115147 -0.009159604959263228 9.033733884853745E-4 0.009159604959263228
8.074856323562416E7 9.110663351327173E-4 0.009290936885712869 0.9990889336648673 -0.009290936885712869 0.9990889336648673 -0.009290936885712869 9.110663351327173E-4 0.009290936885712869
8.196717240342227E7 9.188212934787591E-4 0.00942424163338117 0.9990811787065214 -0.00942424163338117 0.9990811787065214 -0.00942424163338117 9.188212934787591E-4 0.00942424163338117
8.320417209415154E7 9.266413904747744E-4 0.00955955050840024 0.9990733586095252 -0.00955955050840024 0.9990733586095252 -0.00955955050840024 9.266413904747744E-4 0.00955955050840024
8.445983984661816E7 9.345299060669756E-4 0.009696895228232872 0.9990654700939331 -0.009696895228232872 0.9990654700939331 -0.009696895228232872 9.345299060669756E-4 0.009696895228232872
8.573445738807854E7 9.424902740009748E-4 0.00983630792498926 0.9990575097259993 -0.009836307924989261 0.9990575097259993 -0.009836307924989261 9.424902740009748E-4 0.00983630792498926
8.702831069744885E7 9.505260825863781E-4 0.009977821148920154 0.9990494739174136 -0.009977821148920154 0.9990494739174136 -0.009977821148920154 9.505260825863781E-4 0.009977821148920154
8.834169006946853E7 9.586410754299611E-4 0.010121467872088855 0.9990413589245699 -0.010121467872088853 0.9990413589245699 -0.010121467872088853 9.586410754299611E-4 0.010121467872088855
8.96748901798321E7 9.668391521457327E-4 0.010267281492224016 0.9990331608478543 -0.010267281492224016 0.9990331608478543 -0.010267281492224016 9.668391521457327E-4 0.010267281492224016
9.1028210151304E7 9.751243690499844E-4 0.01041529583675473 0.99902487563095 -0.01041529583675473 0.99902487563095 -0.01041529583675473 9.751243690499844E-4 0.01041529583675473
9.240195362083109E7 9.835009398491531E-4 0.01056554516702876 0.9990164990601509 -0.01056554516702876 0.9990164990601509 -0.01056554516702876 9.835009398491531E-4 0.01056554516702876
9.379642880766791E7 9.919732363280873E-4 0.010718064182714603 0.9990080267636717 -0.010718064182714603 0.9990080267636717 -0.010718064182714603 9.919732363280873E-4 0.010718064182714603
9.521194858253023E7 0.0010005457890459664 0.01087288802638735 0.9989994542109542 -0.01087288802638735 0.9989994542109542 -0.01087288802638735 0.0010005457890459664 0.01087288802638735
9.664883053779216E7 0.001009223288046819 0.011030052288298368 0.998990776711953 -0.011030052288298366 0.998990776711953 -0.011030052288298366 0.001009223288046819 0.011030052288298368
9.810739705874248E7 0.0010180105835912118 0.011189593011328087 0.9989819894164087 -0.011189593011328085 0.9989819894164087 -0.011189593011328085 0.0010180105835912118 0.011189593011328087
9.958797539591652E7 0.0010269126869153413 0.011351546696121267 0.9989730873130844 -0.011351546696121267 0.9989730873130844 -0.011351546696121267 0.0010269126869153413 0.011351546696121267
1.0109089773851961E8 0.0010359347710233529 0.01151595030640375 0.9989640652289766 -0.011515950306403752 0.9989640652289766 -0.011515950306403752 0.0010359347710233529 0.01151595030640375
1.0261650128895843E8 0.0010450821715183405 0.011682841274479447 0.9989549178284817 -0.011682841274479449 0.9989549178284817 -0.011682841274479449 0.0010450821715183405 0.011682841274479447
1.0416512833849736E8 0.001054360387477085 0.011852257506906503 0.9989456396125228 -0.011852257506906503 0.9989456396125228 -0.011852257506906503 0.001054360387477085 0.011852257506906503
1.0573712634405641E8 0.001063775082373179 0.012024237390351017 0.9989362249176267 -0.012024237390351016 0.9989362249176267 -0.012024237390351016 0.001063775082373179 0.012024237390351017
1.0733284800616828E8 0.0010733320850527955 0.012198819797617116 0.9989266679149471 -0.012198819797617116 0.9989266679149471 -0.012198819797617116 0.0010733320850527955 0.012198819797617116
1.0895265134811176E8 0.0010830373907669776 0.012376044093851873 0.9989169626092329 -0.012376044093851873 0.9989169626092329 -0.012376044093851873 0.0010830373907669776 0.012376044093851873
1.1059689979623953E8 0.001092897162263921 0.012555950142923815 0.9989071028377359 -0.012555950142923815 0.9989071028377359 -0.012555950142923815 0.001092897162263921 0.012555950142923815
1.1226596226151802E8 0.0011029177309443642 0.012738578313973677 0.9988970822690557 -0.012738578313973677 0.9988970822690557 -0.012738578313973677 0.0011029177309443642 0.012738578313973677
1.1396021322229806E8 0.0011131055980828147 0.012923969488136252 0.9988868944019172 -0.012923969488136249 0.9988868944019172 -0.012923969488136249 0.0011131055980828147 0.012923969488136252
1.1568003280833441E8 0.0011234674361170298 0.013112165065432451 0.9988765325638829 -0.013112165065432451 0.9988765325638829 -0.013112165065432451 0.0011234674361170298 0.013112165065432451
1.1742580688607343E8 0.0011340100900078024 0.013303206971830723 0.9988659899099921 -0.013303206971830723 0.9988659899099921 -0.013303206971830723 0.0011340100900078024 0.013303206971830723
1.1919792714522783E8 0.0011447405786708176 0.013497137666477322 0.9988552594213292 -0.013497137666477322 0.9988552594213292 -0.013497137666477322 0.0011447405786708176 0.013497137666477322
1.2099679118665792E8 0.0011556660964820529 0.013694000149095116 0.998844333903518 -0.013694000149095116 0.998844333903518 -0.013694000149095116 0.0011556660964820529 0.013694000149095116
1.2282280261157903E8 0.0011667940148579316 0.013893837967551092 0.998833205985142 -0.013893837967551092 0.998833205985142 -0.013893837967551092 0.0011667940148579316 0.013893837967551092
1.2467637111211549E8 0.0011781318839112012 0.014096695225592787 0.9988218681160888 -0.014096695225592787 0.9988218681160888 -0.014096695225592787 0.0011781318839112012 0.014096695225592787
1.265579125632208E8 0.001189687434183309 0.014302616590754484 0.9988103125658166 -0.014302616590754484 0.9988103125658166 -0.014302616590754484 0.001189687434183309 0.014302616590754484
1.284678491159853E8 0.0012014685784538636 0.014511647302434276 0.9987985314215462 -0.014511647302434276 0.9987985314215462 -0.014511647302434276 0.0012014685784538636 0.014511647302434276
1.3040660929235186E8 0.0012134834136276443 0.014723833180143604 0.9987865165863723 -0.014723833180143604 0.9987865165863723 -0.014723833180143604 0.0012134834136276443 0.014723833180143604
1.3237462808126101E8 0.0012257402226994653 0.014939220631931201 0.9987742597773006 -0.014939220631931198 0.9987742597773006 -0.014939220631931198 0.0012257402226994653 0.014939220631931201
1.3437234703624701E8 0.0012382474767971983 0.015157856662983978 0.9987617525232029 -0.015157856662983978 0.9987617525232029 -0.015157856662983978 0.0012382474767971983 0.015157856662983978
1.364002143745067E8 0.0012510138373031472 0.015379788884407785 0.998748986162697 -0.015379788884407785 0.998748986162697 -0.015379788884407785 0.0012510138373031472 0.015379788884407785
1.3845868507746372E8 0.001264048158054029 0.015605065522191602 0.998735951841946 -0.015605065522191599 0.998735951841946 -0.015605065522191599 0.001264048158054029 0.015605065522191602
1.405482209928499E8 0.0012773594876198224 0.015833735426359054 0.99872264051238 -0.015833735426359054 0.99872264051238 -0.015833735426359054 0.0012773594876198224 0.015833735426359054
1.426692909383278E8 0.0012909570716618376 0.01606584808031194 0.9987090429283382 -0.01606584808031194 0.9987090429283382 -0.01606584808031194 0.0012909570716618376 0.01606584808031194
1.4482237080667645E8 0.0013048503553705123 0.016301453610370713 0.9986951496446296 -0.016301453610370716 0.9986951496446296 -0.016301453610370716 0.0013048503553705123 0.016301453610370713
1.4700794367256513E8 0.0013190489859835795 0.016540602795517854 0.9986809510140164 -0.016540602795517854 0.9986809510140164 -0.016540602795517854 0.0013190489859835795 0.016540602795517854
1.492264999009378E8 0.0013335628153855058 0.016783347077350172 0.9986664371846146 -0.016783347077350175 0.9986664371846146 -0.016783347077350175 0.0013335628153855058 0.016783347077350172
1.5147853725703382E8 0.0013484019027893393 0.01702973857024698 0.9986515980972105 -0.01702973857024698 0.9986515980972105 -0.01702973857024698 0.0013484019027893393 0.01702973857024698
1.5376456101806876E8 0.001363576517502457 0.017279830071761662 0.9986364234824977 -0.017279830071761662 0.9986364234824977 -0.017279830071761662 0.001363576517502457 0.017279830071761662
1.5608508408660066E8 0.001379097141778049 0.01753367507324453 0.9986209028582219 -0.01753367507324453 0.9986209028582219 -0.01753367507324453 0.001379097141778049 0.01753367507324453
1.5844062710560706E8 0.001394974473754608 0.01779132777070576 0.9986050255262454 -0.01779132777070576 0.9986050255262454 -0.01779132777070576 0.001394974473754608 0.01779132777070576
1.6083171857529896E8 0.001411219430486182 0.01805284307592754 0.9985887805695137 -0.01805284307592754 0.9985887805695137 -0.01805284307592754 0.001411219430486182 0.01805284307592754
1.632588949716973E8 0.0014278431510666568 0.018318276627835237 0.9985721568489333 -0.018318276627835237 0.9985721568489333 -0.018318276627835237 0.0014278431510666568 0.018318276627835237
1.6572270086699936E8 0.0014448569998519456 0.01858768480413808 0.9985551430001479 -0.01858768480413808 0.9985551430001479 -0.01858768480413808 0.0014448569998519456 0.01858768480413808
1.6822368905176118E8 0.0014622725697846118 0.01886112473325021 0.9985377274302154 -0.01886112473325021 0.9985377274302154 -0.01886112473325021 0.0014622725697846118 0.01886112473325021
1.7076242065892437E8 0.0014801016858261172 0.019138654306503532 0.9985198983141739 -0.019138654306503532 0.9985198983141739 -0.019138654306503532 0.0014801016858261172 0.019138654306503532
1.7333946528971428E8 0.0014983564085027151 0.019420332190664618 0.9985016435914972 -0.019420332190664618 0.9985016435914972 -0.019420332190664618 0.0014983564085027151 0.019420332190664618
1.7595540114143828E8 0.0015170490375717635 0.019706217840767905 0.9984829509624283 -0.019706217840767905 0.9984829509624283 -0.019706217840767905 0.0015170490375717635 0.019706217840767905
1.786108151372127E8 0.0015361921158161575 0.01999637151327831 0.9984638078841839 -0.01999637151327831 0.9984638078841839 -0.01999637151327831 0.0015361921158161575 0.01999637151327831
1.8130630305764765E8 0.0015557984329755158 0.020290854279596777 0.9984442015670245 -0.020290854279596777 0.9984442015670245 -0.020290854279596777 0.0015557984329755158 0.020290854279596777
1.840424696745189E8 0.0015758810298237206 0.020589728039922234 0.9984241189701765 -0.020589728039922234 0.9984241189701765 -0.020589728039922234 0.0015758810298237206 0.020589728039922234
1.8681992888645732E8 0.0015964532024035339 0.020893055537484568 0.9984035467975964 -0.020893055537484568 0.9984035467975964 -0.020893055537484568 0.0015964532024035339 0.020893055537484568
1.8963930385668582E8 0.0016175285064300438 0.021200900373162763 0.9983824714935698 -0.021200900373162763 0.9983824714935698 -0.021200900373162763 0.0016175285064300438 0.021200900373162763
1.92501227152835E8 0.0016391207618759484 0.02151332702050308 0.9983608792381242 -0.02151332702050308 0.9983608792381242 -0.02151332702050308 0.0016391207618759484 0.02151332702050308
1.9540634088886917E8 0.0016612440577528369 0.02183040084115211 0.9983387559422471 -0.02183040084115211 0.9983387559422471 -0.02183040084115211 0.0016612440577528369 0.02183040084115211
1.983552968691535E8 0.0016839127571039673 0.02215218810071993 0.998316087242896 -0.02215218810071993 0.998316087242896 -0.02215218810071993 0.0016839127571039673 0.02215218810071993
2.0134875673469606E8 0.0017071415022253018 0.022478755985088215 0.9982928584977746 -0.022478755985088215 0.9982928584977746 -0.022478755985088215 0.0017071415022253018 0.022478755985088215
2.0438739211159652E8 0.0017309452201329904 0.02281017261717871 0.9982690547798672 -0.022810172617178714 0.9982690547798672 -0.022810172617178714 0.0017309452201329904 0.02281017261717871
2.074718847617352E8 0.001755339128296851 0.02314650707419683 0.9982446608717032 -0.023146507074196826 0.9982446608717032 -0.023146507074196826 0.001755339128296851 0.02314650707419683
2.106029267357361E8 0.0017803387406609013 0.02348782940536535 0.9982196612593391 -0.023487829405365354 0.9982196612593391 -0.023487829405365354 0.0017803387406609013 0.02348782940536535
2.1378122052823865E8 0.0018059598739734147 0.02383421065016285 0.9981940401260265 -0.02383421065016285 0.9981940401260265 -0.02383421065016285 0.0018059598739734147 0.02383421065016285
2.1700747923551247E8 0.0018322186544505329 0.024185722857080885 0.9981677813455494 -0.024185722857080885 0.9981677813455494 -0.024185722857080885 0.0018322186544505329 0.024185722857080885
2.2028242671545094E8 0.0018591315247989716 0.024542439102913975 0.9981408684752009 -0.024542439102913975 0.9981408684752009 -0.024542439102913975 0.0018591315247989716 0.024542439102913975
2.23606797749979E8 0.001886715251624909 0.024904433512595366 0.998113284748375 -0.024904433512595366 0.998113284748375 -0.024904433512595366 0.001886715251624909 0.024904433512595366
2.2698133820991236E8 0.0019149869332576745 0.02527178127959127 0.9980850130667424 -0.02527178127959127 0.9980850130667424 -0.02527178127959127 0.0019149869332576745 0.02527178127959127
2.3040680522230446E8 0.0019439640080184321 0.025644558686865257 0.9980560359919814 -0.025644558686865264 0.9980560359919814 -0.025644558686865264 0.0019439640080184321 0.025644558686865257
2.338839673403185E8 0.0019736642629655725 0.026022843128423852 0.9980263357370341 -0.026022843128423852 0.9980263357370341 -0.026022843128423852 0.0019736642629655725 0.026022843128423852
2.37413604715664E8 0.0020041058431500467 0.026406713131453072 0.9979958941568499 -0.026406713131453072 0.9979958941568499 -0.026406713131453072 0.0020041058431500467 0.026406713131453072
